(1614020062.799532) can0 01800A00#
(1614020062.804894) can0 01800A00#
(1614020062.810272) can0 01A00A00#
(1614020062.815654) can0 01A00A00#
(1614020062.821061) can0 00800A00#
(1614020062.826420) can0 00800A00#
(1614020062.831754) can0 00600A00#
(1614020062.837181) can0 00600A00#
(1614020062.842502) can0 00C00A00#
(1614020062.847873) can0 00C00A00#
(1614020062.853238) can0 00A00A00#
(1614020062.858626) can0 00A00A00#
(1614020062.863989) can0 00400A00#
(1614020062.869366) can0 00400A00#
(1614020062.874744) can0 00200A00#
(1614020062.880138) can0 00200A00#
(1614020062.885471) can0 01000A00#
(1614020062.890837) can0 01000A00#
(1614020062.896218) can0 01200A00#
(1614020062.901596) can0 01200A00#
(1614020062.906988) can0 01400A00#
(1614020062.912319) can0 01400A00#
(1614020062.917713) can0 01600A00#
(1614020062.923096) can0 01600A00#
(1614020062.928454) can0 03000A00#
(1614020062.933821) can0 03000A00#
(1614020062.939178) can0 03200A00#
(1614020062.944680) can0 03200A00#
(1614020063.227359) can0 343#00000001FFFFFFFF
(1614020063.227537) can0 343#0006FFFFFFFFFFFF
(1614020063.227760) can0 540#30000001FFFFFFFF
(1614020063.227991) can0 343#000CFFFFFFFFFFFF
(1614020063.228166) can0 540#3006FFFFFFFFFFFF
(1614020063.228373) can0 343#0012FFFF00070001
(1614020063.228548) can0 540#300CFFFFFFFFFFFF
(1614020063.228722) can0 343#001803E800000015
(1614020063.228916) can0 540#3012FFFF00070001
(1614020063.229217) can0 343#001EECCCFFFF0D9D
(1614020063.229416) can0 540#301803E800000015
(1614020063.229601) can0 343#002400001900ECCC
(1614020063.229770) can0 540#301EECCCFFFF0D9D
(1614020063.229935) can0 343#002AFFFF0BD62D00
(1614020063.230128) can0 540#302400001900ECCC
(1614020063.230298) can0 343#0030D300FEA5FFFF
(1614020063.230489) can0 540#302AFFFF0BD62D00
(1614020063.230741) can0 343#003608B8F9C00640
(1614020063.230929) can0 540#3030D300FEA5FFFF
(1614020063.231155) can0 343#003C000A016B0000
(1614020063.231327) can0 540#303608B8F9C00640
(1614020063.231503) can0 343#00420942F9C00640
(1614020063.231671) can0 540#303C000A016B0000
(1614020063.231945) can0 343#0048000A00000000
(1614020063.232136) can0 540#30420942F9C00640
(1614020063.232309) can0 343#004E000000000000
(1614020063.232480) can0 540#3048000A00000000
(1614020063.232703) can0 343#0054000000001280
(1614020063.232874) can0 540#304E000000000000
(1614020063.233117) can0 343#005A000000000000
(1614020063.233312) can0 540#3054000000001280
(1614020063.233535) can0 343#0060000000001052
(1614020063.233707) can0 540#305A000000000000
(1614020063.233931) can0 343#0066000004CF0000
(1614020063.234138) can0 540#3060000000001052
(1614020063.234335) can0 343#006C0000F754FFFF
(1614020063.234508) can0 540#3066000004CF0000
(1614020063.234737) can0 343#007207B500000000
(1614020063.234904) can0 540#306C0000F754FFFF
(1614020063.235212) can0 343#0078000A00000000
(1614020063.235381) can0 540#307207B500000000
(1614020063.235551) can0 343#007E00000000099A
(1614020063.235721) can0 540#3078000A00000000
(1614020063.235948) can0 343#0084000002B60000
(1614020063.236139) can0 540#307E00000000099A
(1614020063.236311) can0 343#008A000000000000
(1614020063.236479) can0 540#3084000002B60000
(1614020063.236752) can0 343#0090000000000000
(1614020063.236925) can0 540#308A000000000000
(1614020063.237189) can0 343#00960000000030A0
(1614020063.237377) can0 540#3090000000000000
(1614020063.237910) can0 540#30960000000030A0
(1614020063.246822) can0 080#0001020100A00000
(1614020063.247163) can0 28C#0000000000000000
(1614020063.247337) can0 38C#142E000000000000
(1614020063.247540) can0 48C#0000000000000000
(1614020063.247661) can0 618#4020011600000000
(1614020063.248452) can0 1BD#AC0000003F940FD7
(1614020063.248880) can0 4C2#0307001700000000
(1614020063.249042) can0 211#0000000000000000
(1614020063.249468) can0 212#0000000000000000
(1614020063.249632) can0 540#0008000000000000
(1614020063.249813) can0 440#FFFFFFFC0000FFFA
(1614020063.250312) can0 210#0000000000000000
(1614020063.250478) can0 340#0014001100000000
(1614020063.250650) can0 240#FFE9001000000000
(1614020063.250845) can0 241#00000000001F8BA2
(1614020063.251050) can0 540#28140833080D0000
(1614020063.251168) can0 341#0000000000000001
(1614020063.251768) can0 213#03E8000000000000
(1614020063.251928) can0 2C0#0000000000000000
(1614020063.252115) can0 3C0#0000000000000000
(1614020063.252295) can0 4C0#0000000000000000
(1614020063.252471) can0 4AA#0029009000000000
(1614020063.252697) can0 4AC#0000000000000000
(1614020063.252865) can0 4BE#0000000000000000
(1614020063.253126) can0 4BF#0000000000000000
(1614020063.256818) can0 080#00010201009E0000
(1614020063.257132) can0 28C#0000000000000000
(1614020063.257299) can0 38C#142E000000000000
(1614020063.257465) can0 48C#0000000000000000
(1614020063.258142) can0 1BD#AD000B8911200000
(1614020063.258770) can0 211#0000000000000000
(1614020063.258932) can0 4C2#0307001700000000
(1614020063.259442) can0 212#0000000000000000
(1614020063.259604) can0 540#0008000000000100
(1614020063.259766) can0 440#FFFFFFFD0000FFF9
(1614020063.260305) can0 210#0000000000000000
(1614020063.260465) can0 340#0014001100000000
(1614020063.260625) can0 341#0000000000000001
(1614020063.260792) can0 240#FFE9001000000000
(1614020063.260972) can0 241#0000000000028BA2
(1614020063.261479) can0 213#03E8000000000000
(1614020063.261638) can0 540#1DA2071E04D402BE
(1614020063.261896) can0 2C0#0000000000000000
(1614020063.262121) can0 3C0#0000000000000000
(1614020063.262288) can0 4C0#0000000000000078
(1614020063.262508) can0 4AA#002F008D00140011
(1614020063.262674) can0 4AC#08140833080D0000
(1614020063.262899) can0 4BE#0000000000000000
(1614020063.263110) can0 4BF#FFE9001000000000
(1614020063.266821) can0 080#00010201009E0000
(1614020063.267152) can0 28C#0000000000000000
(1614020063.267322) can0 38C#142E000000000000
(1614020063.267484) can0 48C#0000000000000000
(1614020063.268926) can0 4C2#0307001700000000
(1614020063.269455) can0 211#0000000000000000
(1614020063.269634) can0 540#0008000000000200
(1614020063.269803) can0 440#FFFFFFFD0000FFFA
(1614020063.270313) can0 212#0000000000000000
(1614020063.270529) can0 340#0014001300000000
(1614020063.270694) can0 341#0000000000000001
(1614020063.270860) can0 240#FFE9001000000000
(1614020063.271083) can0 241#0600000410028BA2
(1614020063.271516) can0 210#0000000000000000
(1614020063.271712) can0 540#28140833080D0000
(1614020063.271911) can0 2C0#FFE9001000140011
(1614020063.272111) can0 3C0#0000000000000000
(1614020063.272277) can0 4C0#0000000000000078
(1614020063.272496) can0 4AA#002F008A00140011
(1614020063.272659) can0 4AC#08140833080D0000
(1614020063.272875) can0 4BE#0000000000000000
(1614020063.273128) can0 4BF#FFE9001000000000
(1614020063.273593) can0 213#03E8000000000000
(1614020063.276825) can0 080#00050201009E0000
(1614020063.277145) can0 28C#0000000000000000
(1614020063.277337) can0 38C#142E000000000000
(1614020063.277508) can0 48C#0000000000000000
(1614020063.277623) can0 620#4020011600000000
(1614020063.279122) can0 4C2#0307001700000000
(1614020063.279247) can0 211#0000000000000000
(1614020063.279666) can0 540#0008000000000300
(1614020063.279778) can0 212#0000000000000000
(1614020063.279941) can0 440#FFFFFFFD0000FFFA
(1614020063.280406) can0 210#0000000000000000
(1614020063.280565) can0 340#0014001300000000
(1614020063.280722) can0 240#FFE9001000000000
(1614020063.280884) can0 341#0000000000000001
(1614020063.281087) can0 241#0000000000028BA2
(1614020063.281583) can0 213#03E8000000000000
(1614020063.281746) can0 540#1DA2071E04D402BD
(1614020063.281908) can0 2C0#FFE9001000140011
(1614020063.282114) can0 3C0#0000000000000000
(1614020063.282288) can0 4C0#0000000000000078
(1614020063.282462) can0 4AA#002F009000140013
(1614020063.282681) can0 4AC#08140833080D0000
(1614020063.282908) can0 4BE#0000000000000000
(1614020063.283113) can0 4BF#FFE9001000000000
(1614020063.286826) can0 080#00050201009D0000
(1614020063.287152) can0 28C#0000000000000000
(1614020063.287345) can0 38C#142E000000000000
(1614020063.287517) can0 48C#0000000000000000
(1614020063.288689) can0 211#0000000000000000
(1614020063.289143) can0 4C2#0604000F00000000
(1614020063.289268) can0 212#0000000000000000
(1614020063.289704) can0 540#0008000000000400
(1614020063.289818) can0 210#0000000000000000
(1614020063.290020) can0 440#FFFFFFFD0000FFFA
(1614020063.290479) can0 213#03E8000000000000
(1614020063.290640) can0 340#0010001300000000
(1614020063.290798) can0 240#FFE9001000000000
(1614020063.291266) can0 341#0000000000000001
(1614020063.291434) can0 241#0000000004028BA2
(1614020063.291746) can0 540#28140833080D0000
(1614020063.291918) can0 2C0#FFE9001000140013
(1614020063.292113) can0 3C0#0000000000000000
(1614020063.292292) can0 4C0#0000000000000078
(1614020063.292513) can0 4AA#002F008D00140013
(1614020063.292684) can0 4AC#08140833080D0000
(1614020063.292909) can0 4BE#0000000000000000
(1614020063.293149) can0 4BF#FFE9001000000000
(1614020063.296847) can0 080#00050201009E0000
(1614020063.297144) can0 28C#0000000000000000
(1614020063.297343) can0 38C#142E000000000000
(1614020063.297524) can0 48C#0000000000000000
(1614020063.298804) can0 211#0000000000000000
(1614020063.299074) can0 4C2#0604000F00000000
(1614020063.299526) can0 212#0000000000000000
(1614020063.299753) can0 540#0008000000000500
(1614020063.299992) can0 440#FFFFFFFC0000FFFA
(1614020063.300186) can0 341#0000000000000001
(1614020063.300307) can0 241#0000000001028BA2
(1614020063.300694) can0 340#0018001300000000
(1614020063.300806) can0 210#0000000000000000
(1614020063.301269) can0 213#03E8000000000000
(1614020063.301869) can0 240#FFEE001500000000
(1614020063.302062) can0 2C0#FFE9001000140013
(1614020063.302267) can0 3C0#0000000000000000
(1614020063.302440) can0 4C0#0000000000000078
(1614020063.302616) can0 4AA#0036008A00100013
(1614020063.302792) can0 4AC#08140833080D0000
(1614020063.302986) can0 4BE#0000000000000000
(1614020063.303199) can0 4BF#FFE9001000000000
(1614020063.303319) can0 540#1DA2071E04D402BD
(1614020063.306823) can0 080#00050201009E0000
(1614020063.307132) can0 28C#0000000000000000
(1614020063.307300) can0 38C#142E000000000000
(1614020063.307466) can0 48C#0000000000000000
(1614020063.307632) can0 624#4020011600000000
(1614020063.308879) can0 211#0000000000000000
(1614020063.309072) can0 4C2#0604000F00000000
(1614020063.309583) can0 212#0000000000000000
(1614020063.309985) can0 440#FFFFFFFD0000FFFA
(1614020063.309742) can0 540#0008000000000600
(1614020063.310189) can0 241#0000000002028BA2
(1614020063.310302) can0 341#0000000000000001
(1614020063.310745) can0 340#0014001100000000
(1614020063.310873) can0 210#0000000000000000
(1614020063.311364) can0 213#03E8000000000000
(1614020063.311922) can0 2C0#FFE9001000100013
(1614020063.312157) can0 240#FFE9001000000000
(1614020063.312355) can0 3C0#0000000000000000
(1614020063.312473) can0 4C0#0000000000000078
(1614020063.312792) can0 4AA#0036009000180013
(1614020063.312914) can0 4AC#08140833080D0000
(1614020063.313234) can0 4BE#0000000000000000
(1614020063.313357) can0 4BF#FFEE001500000000
(1614020063.316826) can0 080#00050201009D0000
(1614020063.317131) can0 28C#0000000000000000
(1614020063.317299) can0 38C#142E000000000000
(1614020063.317466) can0 48C#0000000000000000
(1614020063.318740) can0 211#0000000000000000
(1614020063.319185) can0 4C2#0604000F00000000
(1614020063.319301) can0 212#0000000000000000
(1614020063.319740) can0 210#0000000000000000
(1614020063.319900) can0 540#0008000000000700
(1614020063.320105) can0 440#FFFFFFFD0000FFFA
(1614020063.320322) can0 341#0000000000000001
(1614020063.320444) can0 241#0000000002028BA2
(1614020063.320730) can0 340#0014001100000000
(1614020063.321161) can0 213#03E8000000000000
(1614020063.321885) can0 2C0#FFEE001500180013
(1614020063.322092) can0 240#FFE9001000000000
(1614020063.322286) can0 3C0#0000000000000000
(1614020063.322457) can0 4C0#0000000000000078
(1614020063.322632) can0 4AA#0036008D00140011
(1614020063.322802) can0 4AC#08130832080D0000
(1614020063.322991) can0 540#1DA2071E04D402BE
(1614020063.323110) can0 4BE#0000000000000000
(1614020063.323285) can0 4BF#FFE9001000000000
(1614020063.326823) can0 080#00050201009E0000
(1614020063.327128) can0 28C#0000000000000000
(1614020063.327294) can0 38C#142E000000000000
(1614020063.327461) can0 48C#0000000000000000
(1614020063.328478) can0 4C2#0604000F00000000
(1614020063.328960) can0 211#0000000000000000
(1614020063.329191) can0 540#0008000000000800
(1614020063.329701) can0 212#0000000000000000
(1614020063.329877) can0 440#0000FFFF0000FFFA
(1614020063.330087) can0 340#0014001100000000
(1614020063.330262) can0 341#0000000000000001
(1614020063.330433) can0 241#0000000002028BA2
(1614020063.330869) can0 240#FFE9001000000000
(1614020063.330994) can0 210#0000000000000000
(1614020063.331422) can0 213#03E8000000000000
(1614020063.331885) can0 2C0#FFE9001000140011
(1614020063.332067) can0 540#28140833080D0000
(1614020063.332251) can0 3C0#0000000000000000
(1614020063.332421) can0 4C0#0000000000000078
(1614020063.332593) can0 4AA#002F008D00140011
(1614020063.332761) can0 4AC#08130832080D0000
(1614020063.332933) can0 4BE#0000000000000000
(1614020063.333124) can0 4BF#FFE9001000000000
(1614020063.336822) can0 080#00050201009D0000
(1614020063.337129) can0 28C#0000000000000000
(1614020063.337299) can0 38C#142E000000000000
(1614020063.337466) can0 48C#0000000000000000
(1614020063.338476) can0 4C2#0604000F00000000
(1614020063.338907) can0 211#0000000000000000
(1614020063.339315) can0 540#0008000000000900
(1614020063.339432) can0 212#0000000000000000
(1614020063.339895) can0 440#FFFFFFFC0000FFF9
(1614020063.340057) can0 210#0000000000000000
(1614020063.340248) can0 340#0010001300000000
(1614020063.340425) can0 241#0000000002028BA2
(1614020063.340545) can0 341#0000000000000001
(1614020063.340852) can0 240#FFE9000700000000
(1614020063.341399) can0 213#03E8000000000000
(1614020063.341885) can0 2C0#FFE9001000140011
(1614020063.342109) can0 540#1DA2071E04D402BE
(1614020063.342285) can0 3C0#0000000000000000
(1614020063.342456) can0 4C0#0000000000000078
(1614020063.342623) can0 4AA#0036009000140011
(1614020063.342793) can0 4AC#08140833080D0000
(1614020063.342984) can0 4BE#0000000000000000
(1614020063.343156) can0 4BF#FFE9001000000000
(1614020063.346843) can0 080#00050201009E0001
(1614020063.347129) can0 28C#0000000000000000
(1614020063.347295) can0 38C#142E000000000000
(1614020063.347461) can0 48C#0000000000000000
(1614020063.348446) can0 4C2#0604000F00000000
(1614020063.348895) can0 211#0000000000000000
(1614020063.349163) can0 540#0008000000000A00
(1614020063.349609) can0 212#0000000000000000
(1614020063.350035) can0 440#FFFFFFFC0000FFFA
(1614020063.350228) can0 340#0014001100000000
(1614020063.350290) can0 210#0000000000000000
(1614020063.350451) can0 341#0000000000000001
(1614020063.350559) can0 241#0000000002028BA2
(1614020063.350776) can0 240#FFE9001000000000
(1614020063.351252) can0 213#03E8000000000000
(1614020063.351883) can0 2C0#FFE9001000140011
(1614020063.352103) can0 540#28140833080D0000
(1614020063.352277) can0 3C0#0000000000000000
(1614020063.352396) can0 4C0#0000000000000078
(1614020063.352566) can0 4AA#0036008D00100013
(1614020063.352736) can0 4AC#08140833080D0000
(1614020063.352909) can0 4BE#0000000000000000
(1614020063.353101) can0 4BF#FFE9000700000000
(1614020063.356840) can0 080#00050201009E0000
(1614020063.357149) can0 28C#0000000000000000
(1614020063.357337) can0 38C#142E000000000000
(1614020063.357528) can0 48C#0000000000000000
(1614020063.358614) can0 4C2#0604000F00000000
(1614020063.358725) can0 211#0000000000000000
(1614020063.359175) can0 540#0008000000000B00
(1614020063.359312) can0 212#0000000000000000
(1614020063.359769) can0 210#0000000000000000
(1614020063.359978) can0 440#FFFFFFFD0000FFFA
(1614020063.360167) can0 340#0014001100000000
(1614020063.360350) can0 341#0000000000000001
(1614020063.360552) can0 241#0000000002028BA2
(1614020063.360993) can0 240#FFE9001000000000
(1614020063.361109) can0 213#03E8000000000000
(1614020063.361886) can0 2C0#FFE9000700100013
(1614020063.362079) can0 540#1DA3071E04D402BE
(1614020063.362282) can0 3C0#0000000000000000
(1614020063.362452) can0 4C0#0000000000000078
(1614020063.362617) can0 4AA#002F009000140011
(1614020063.362813) can0 4AC#08140833080D0000
(1614020063.363003) can0 4BE#0000000000000000
(1614020063.363179) can0 4BF#FFE9001000000000
(1614020063.366838) can0 080#00050201009E0000
(1614020063.367150) can0 28C#0000000000000000
(1614020063.367340) can0 38C#142E000000000000
(1614020063.367528) can0 48C#0000000000000000
(1614020063.368783) can0 4C2#0604000F00000000
(1614020063.368912) can0 211#0000000000000000
(1614020063.369404) can0 540#0008000000000C00
(1614020063.369534) can0 212#0000000000000000
(1614020063.369989) can0 210#0000000000000000
(1614020063.370204) can0 440#FFFFFFFD0000FFFA
(1614020063.370436) can0 341#0000000000000001
(1614020063.370608) can0 241#0000000002028BA2
(1614020063.370841) can0 340#0014001100000000
(1614020063.371346) can0 213#03E8000000000000
(1614020063.371890) can0 2C0#FFE9001000140011
(1614020063.372087) can0 240#FFE9001000000000
(1614020063.372262) can0 3C0#0000000000000000
(1614020063.372431) can0 4C0#0000000000000078
(1614020063.372600) can0 4AA#002F009000140011
(1614020063.372770) can0 4AC#08140833080D0000
(1614020063.372939) can0 4BE#0000000000000000
(1614020063.373133) can0 540#28140833080D0000
(1614020063.373304) can0 4BF#FFE9001000000000
(1614020063.376847) can0 080#00050201009E0000
(1614020063.377147) can0 28C#0000000000000000
(1614020063.377375) can0 38C#142E000000000000
(1614020063.377576) can0 48C#0000000000000000
(1614020063.378671) can0 4C2#0604000F00000000
(1614020063.378795) can0 211#0000000000000000
(1614020063.379245) can0 540#0008000000000D00
(1614020063.379359) can0 212#0000000000000000
(1614020063.379807) can0 210#0000000000000000
(1614020063.380025) can0 440#FFFFFFFD0000FFFA
(1614020063.380204) can0 340#0014001100000000
(1614020063.380604) can0 341#0000000000000001
(1614020063.380774) can0 241#0000000002028BA2
(1614020063.380836) can0 213#03E8000000000000
(1614020063.381019) can0 240#FFE9001000000000
(1614020063.381910) can0 2C0#FFE9001000140011
(1614020063.382132) can0 3C0#0000000000000000
(1614020063.382333) can0 540#1DA2071E04D402BD
(1614020063.382532) can0 4C0#0000000000000078
(1614020063.382652) can0 4AA#002F008D00140011
(1614020063.382996) can0 4AC#08140833080D0000
(1614020063.383133) can0 4BE#0000000000000000
(1614020063.383328) can0 4BF#FFE9001000000000
(1614020063.386843) can0 080#00050201009F0000
(1614020063.387149) can0 28C#0000000000000000
(1614020063.387345) can0 38C#142E000000000000
(1614020063.387529) can0 48C#0000000000000000
(1614020063.388670) can0 4C2#0604000F00000000
(1614020063.388792) can0 211#0000000000000000
(1614020063.389282) can0 540#0008000000000E00
(1614020063.389412) can0 212#0000000000000000
(1614020063.389840) can0 210#0000000000000000
(1614020063.390010) can0 440#FFFFFFFD0000FFFA
(1614020063.390176) can0 340#0014001300000000
(1614020063.390655) can0 341#0000000000000001
(1614020063.390828) can0 241#0000000002028BA2
(1614020063.390889) can0 213#03E8000000000000
(1614020063.391078) can0 240#FFE9001000000000
(1614020063.391890) can0 2C0#FFE9001000140011
(1614020063.392192) can0 3C0#0000000000000000
(1614020063.392369) can0 4C0#0000000000000078
(1614020063.392487) can0 540#28140833080D0000
(1614020063.392790) can0 4AA#002F008D00140011
(1614020063.392909) can0 4AC#08140833080D0000
(1614020063.393105) can0 4BE#0000000000000000
(1614020063.393259) can0 4BF#FFE9001000000000
(1614020063.396840) can0 080#00050201009F0000
(1614020063.397127) can0 28C#0000000000000000
(1614020063.397312) can0 38C#142E000000000000
(1614020063.397500) can0 48C#0000000000000000
(1614020063.398605) can0 4C2#0604000F00000000
(1614020063.399085) can0 211#0000000000000000
(1614020063.399335) can0 540#0008000000000F00
(1614020063.399774) can0 212#0000000000000000
(1614020063.400216) can0 440#FFFFFFFD0000FFF9
(1614020063.400355) can0 340#0014001100000000
(1614020063.400487) can0 210#0000000000000000
(1614020063.400655) can0 341#0000000000000001
(1614020063.400842) can0 241#0000000002028BA2
(1614020063.401049) can0 240#FFE9001000000000
(1614020063.401493) can0 213#03E8000000000000
(1614020063.401915) can0 2C0#FFE9001000140011
(1614020063.402137) can0 3C0#0000000000000000
(1614020063.402308) can0 540#1DA1071E04D402BE
(1614020063.402510) can0 4C0#0000000000000078
(1614020063.402629) can0 4AA#0029009000140013
(1614020063.402799) can0 4AC#08140833080D0000
(1614020063.402997) can0 4BE#0000000000000000
(1614020063.403200) can0 4BF#FFE9001000000000
(1614020063.406827) can0 080#00050201009F0000
(1614020063.407155) can0 28C#0000000000000000
(1614020063.407322) can0 38C#142E000000000000
(1614020063.407486) can0 48C#0000000000000000
(1614020063.408615) can0 4C2#0604000F00000000
(1614020063.409069) can0 211#0000000000000000
(1614020063.409471) can0 540#0008000000001000
(1614020063.409594) can0 212#0000000000000000
(1614020063.410062) can0 440#FFFFFFFD0000FFFA
(1614020063.410182) can0 210#0000000000000000
(1614020063.410348) can0 340#0014001100000000
(1614020063.410520) can0 240#FFE9001000000000
(1614020063.410747) can0 341#0000000000000001
(1614020063.410914) can0 241#0000000002028BA2
(1614020063.411142) can0 540#28130833080D0000
(1614020063.411635) can0 213#03E8000000000000
(1614020063.411891) can0 2C0#FFE9001000140013
(1614020063.412134) can0 3C0#0000000000000000
(1614020063.412305) can0 4C0#0000000000000078
(1614020063.412474) can0 4AA#0036008D00140011
(1614020063.412696) can0 4AC#08140833080D0000
(1614020063.412915) can0 4BE#0000000000000000
(1614020063.413090) can0 4BF#FFE9001000000000
(1614020063.416857) can0 080#00050201009F0000
(1614020063.417209) can0 28C#0000000000000000
(1614020063.417377) can0 48C#0000000000000000
(1614020063.417491) can0 38C#142E000000000000
(1614020063.418643) can0 4C2#0604000F00000000
(1614020063.419092) can0 211#0000000000000000
(1614020063.419502) can0 540#0008000000001100
(1614020063.419617) can0 212#0000000000000000
(1614020063.420097) can0 440#FFFFFFFC0000FFFA
(1614020063.420211) can0 210#0000000000000000
(1614020063.420371) can0 340#0014001300000000
(1614020063.420531) can0 240#FFE9001000000000
(1614020063.420771) can0 341#0000000000000001
(1614020063.420939) can0 241#0000000002028BA2
(1614020063.421148) can0 540#1DA3071E04D502BD
(1614020063.421628) can0 213#03E8000000000000
(1614020063.421893) can0 2C0#FFE9001000140011
(1614020063.422144) can0 3C0#0000000000000000
(1614020063.422314) can0 4C0#0000000000000078
(1614020063.422481) can0 4AA#0036008D00140011
(1614020063.422701) can0 4AC#08130833080D0000
(1614020063.422919) can0 4BE#0000000000000000
(1614020063.423147) can0 4BF#FFE9001000000000
(1614020063.426861) can0 080#00050201009F0000
(1614020063.427131) can0 28C#0000000000000000
(1614020063.427296) can0 38C#142E000000000000
(1614020063.427467) can0 48C#0000000000000000
(1614020063.428804) can0 4C2#0604000F00000000
(1614020063.428917) can0 211#0000000000000000
(1614020063.429374) can0 212#0000000000000000
(1614020063.429534) can0 540#0008000000001200
(1614020063.430034) can0 210#0000000000000000
(1614020063.430196) can0 440#FFFFFFFD0000FFFA
(1614020063.430353) can0 340#0014001100000000
(1614020063.430839) can0 341#0000000000000001
(1614020063.430967) can0 213#03E8000000000000
(1614020063.431165) can0 241#0000000002028BA2
(1614020063.431334) can0 240#FFE9001000000000
(1614020063.431890) can0 2C0#FFE9001000140011
(1614020063.432135) can0 3C0#0000000000000000
(1614020063.432305) can0 4C0#0000000000000078
(1614020063.432473) can0 4AA#002F009000140013
(1614020063.432639) can0 540#28130832080D0000
(1614020063.432805) can0 4AC#08130833080D0000
(1614020063.432988) can0 4BE#0000000000000000
(1614020063.433160) can0 4BF#FFE9001000000000
(1614020063.436825) can0 080#00050201009F0000
(1614020063.437129) can0 28C#0000000000000000
(1614020063.437296) can0 38C#142E000000000000
(1614020063.437463) can0 48C#0000000000000000
(1614020063.438809) can0 4C2#0604000F00000000
(1614020063.438922) can0 211#0000000000000000
(1614020063.439461) can0 540#0008000000001300
(1614020063.439606) can0 212#0000000000000000
(1614020063.440072) can0 210#0000000000000000
(1614020063.440238) can0 440#FFFFFFFD0000FFFA
(1614020063.440432) can0 340#0014001300000000
(1614020063.440601) can0 240#FFE9001000000000
(1614020063.440719) can0 341#0000000000000001
(1614020063.440886) can0 241#0000000002028BA2
(1614020063.441239) can0 540#1DA2071E04D402BD
(1614020063.441660) can0 213#03E8000000000000
(1614020063.442067) can0 2C0#FFE9001000140013
(1614020063.442286) can0 3C0#0000000000000000
(1614020063.442443) can0 4C0#0000000000000078
(1614020063.442600) can0 4AA#0036008D00140011
(1614020063.442757) can0 4AC#08130832080D0000
(1614020063.442934) can0 4BE#0000000000000000
(1614020063.443162) can0 4BF#FFE9001000000000
(1614020063.446825) can0 080#00050201009F0001
(1614020063.447159) can0 28C#0000000000000000
(1614020063.447326) can0 38C#142E000000000000
(1614020063.447488) can0 48C#0000000000000000
(1614020063.448850) can0 4C2#0604000F00000000
(1614020063.448985) can0 211#0000000000000000
(1614020063.449488) can0 540#0008000000001400
(1614020063.449608) can0 212#0000000000000000
(1614020063.450072) can0 210#0000000000000000
(1614020063.450284) can0 440#FFFFFFFC0000FFFA
(1614020063.450456) can0 340#0014001300000000
(1614020063.450629) can0 341#0000000000000001
(1614020063.450805) can0 241#0000000002028BA2
(1614020063.451241) can0 240#FFE9001000000000
(1614020063.451380) can0 213#03E8000000000000
(1614020063.451888) can0 2C0#FFE9001000140011
(1614020063.452173) can0 3C0#0000000000000000
(1614020063.452343) can0 4C0#0000000000000078
(1614020063.452511) can0 540#28130833080D0000
(1614020063.452627) can0 4AA#0036008D00140013
(1614020063.452794) can0 4AC#08130832080D0000
(1614020063.452982) can0 4BE#0000000000000000
(1614020063.453149) can0 4BF#FFE9001000000000
(1614020063.456829) can0 080#00050201009F0000
(1614020063.457127) can0 28C#0000000000000000
(1614020063.457291) can0 38C#142E000000000000
(1614020063.457453) can0 48C#0000000000000000
(1614020063.458867) can0 4C2#0604000F00000000
(1614020063.459032) can0 211#0000000000000000
(1614020063.459456) can0 212#0000000000000000
(1614020063.459664) can0 540#0008000000001500
(1614020063.460267) can0 440#FFFFFFFD0000FFFA
(1614020063.460385) can0 210#0000000000000000
(1614020063.460563) can0 340#0014001300000000
(1614020063.460738) can0 341#0000000000000001
(1614020063.460926) can0 241#0000000002028BA2
(1614020063.461201) can0 240#FFE9001000000000
(1614020063.461643) can0 213#03E8000000000000
(1614020063.461905) can0 2C0#FFE9001000140013
(1614020063.462125) can0 3C0#0000000000000000
(1614020063.462309) can0 4C0#0000000000000078
(1614020063.462481) can0 540#1DA2071E04D402BD
(1614020063.462656) can0 4AA#0036008D00140013
(1614020063.462829) can0 4AC#08130833080D0000
(1614020063.463031) can0 4BE#0000000000000000
(1614020063.463198) can0 4BF#FFE9001000000000
(1614020063.466827) can0 080#00050201009F0000
(1614020063.467137) can0 28C#0000000000000000
(1614020063.467300) can0 38C#142E000000000000
(1614020063.467465) can0 48C#0000000000000000
(1614020063.468722) can0 211#0000000000000000
(1614020063.468899) can0 4C2#0604000F00000000
(1614020063.469428) can0 212#0000000000000000
(1614020063.469591) can0 540#0008000000001600
(1614020063.470085) can0 210#0000000000000000
(1614020063.470305) can0 440#FFFFFFFD0000FFFA
(1614020063.470472) can0 340#0014001100000000
(1614020063.470638) can0 240#FFE4000B00000000
(1614020063.470804) can0 341#0000000000000001
(1614020063.470993) can0 241#0000000002028BA2
(1614020063.471402) can0 540#28130832080C0000
(1614020063.471512) can0 213#03E8000000000000
(1614020063.471887) can0 2C0#FFE9001000140013
(1614020063.472115) can0 3C0#0000000000000000
(1614020063.472281) can0 4C0#0000000000000078
(1614020063.472495) can0 4AA#002F008A00140013
(1614020063.472710) can0 4AC#08130833080D0000
(1614020063.472876) can0 4BE#0000000000000000
(1614020063.473137) can0 4BF#FFE9001000000000
(1614020063.476833) can0 080#00050201009F0000
(1614020063.477139) can0 28C#0000000000000000
(1614020063.477310) can0 38C#142E000000000000
(1614020063.477472) can0 48C#0000000000000000
(1614020063.478883) can0 4C2#0604000F00000000
(1614020063.479475) can0 211#0000000000000000
(1614020063.479641) can0 540#0008000000001700
(1614020063.480124) can0 212#0000000000000000
(1614020063.480283) can0 440#FFFFFFFD0000FFF9
(1614020063.480990) can0 241#0000000002028BA2
(1614020063.480491) can0 340#0018001100000000
(1614020063.480652) can0 240#FFE9000B00000000
(1614020063.480810) can0 341#0000000000000001
(1614020063.481436) can0 540#1DA2071E04D402BD
(1614020063.481549) can0 210#0000000000000000
(1614020063.481921) can0 2C0#FFE9001000140013
(1614020063.482064) can0 213#03E8000000000000
(1614020063.482222) can0 3C0#0000000000000000
(1614020063.482381) can0 4C0#0000000000000078
(1614020063.482535) can0 4AA#002F009000140011
(1614020063.482691) can0 4AC#08130832080C0000
(1614020063.482900) can0 4BE#0000000000000000
(1614020063.483128) can0 4BF#FFE4000B00000000
(1614020063.486830) can0 080#00050201009F0000
(1614020063.487129) can0 28C#0000000000000000
(1614020063.487296) can0 38C#142E000000000000
(1614020063.487460) can0 48C#0000000000000000
(1614020063.488719) can0 211#0000000000000000
(1614020063.489108) can0 4C2#0604000F00000000
(1614020063.489216) can0 212#0000000000000000
(1614020063.489676) can0 540#0008000000001800
(1614020063.489791) can0 210#0000000000000000
(1614020063.490234) can0 213#03E8000000000000
(1614020063.490411) can0 440#FFFFFFFD0000FFFA
(1614020063.490579) can0 340#0014001300000000
(1614020063.490796) can0 341#0000000000000001
(1614020063.490972) can0 241#0000000002028BA2
(1614020063.491291) can0 240#FFE9001000000000
(1614020063.491887) can0 2C0#FFE4000B00140011
(1614020063.492129) can0 3C0#0000000000000000
(1614020063.492295) can0 4C0#0000000000000078
(1614020063.492515) can0 4AA#0036008D00180011
(1614020063.492680) can0 540#28130833080C0000
(1614020063.492853) can0 4AC#08130832080C0000
(1614020063.493055) can0 4BE#0000000000000000
(1614020063.493244) can0 4BF#FFE9000B00000000
(1614020063.496846) can0 080#00050201009F0000
(1614020063.497146) can0 28C#0000000000000000
(1614020063.497329) can0 38C#142E000000000000
(1614020063.497499) can0 48C#0000000000000000
(1614020063.499039) can0 4C2#0604000F00000000
(1614020063.499153) can0 211#0000000000000000
(1614020063.499586) can0 212#0000000000000000
(1614020063.499763) can0 540#0008000000001900
(1614020063.500292) can0 210#0000000000000000
(1614020063.500456) can0 440#FFFFFFFC0000FFFA
(1614020063.500624) can0 340#0014001300000000
(1614020063.500906) can0 341#0000000000000001
(1614020063.501096) can0 241#0000000002028BA2
(1614020063.501323) can0 240#FFE9001000000000
(1614020063.501761) can0 213#03E8000000000000
(1614020063.501920) can0 2C0#FFE9000B00180011
(1614020063.502106) can0 3C0#0000000000000000
(1614020063.502334) can0 4C0#0000000000000078
(1614020063.502505) can0 4AA#0036009000140013
(1614020063.502672) can0 540#1DA3071E04D402BE
(1614020063.502834) can0 4AC#08130833080C0000
(1614020063.503023) can0 4BE#0000000000000000
(1614020063.503210) can0 4BF#FFE9001000000000
(1614020063.506828) can0 080#00050201009F0000
(1614020063.507128) can0 28C#0000000000000000
(1614020063.507293) can0 38C#142E000000000000
(1614020063.507457) can0 48C#0000000000000000
(1614020063.508637) can0 211#0000000000000000
(1614020063.509037) can0 4C2#0604000F00000000
(1614020063.509152) can0 212#0000000000000000
(1614020063.509577) can0 210#0000000000000000
(1614020063.509738) can0 540#0008000000001A00
(1614020063.510240) can0 213#03E8000000000000
(1614020063.510405) can0 440#FFFFFFFD0000FFFA
(1614020063.510572) can0 341#0000000000000001
(1614020063.510743) can0 241#0000000002028BA2
(1614020063.510910) can0 340#0014001300000000
(1614020063.511708) can0 240#FFE4000B00000000
(1614020063.511875) can0 2C0#FFE9001000140013
(1614020063.512098) can0 3C0#0000000000000000
(1614020063.512311) can0 4C0#0000000000000078
(1614020063.512475) can0 4AA#0036009000140013
(1614020063.512638) can0 540#28140833080C0000
(1614020063.512800) can0 4AC#08130833080C0000
(1614020063.512980) can0 4BE#0000000000000000
(1614020063.513143) can0 4BF#FFE9001000000000
(1614020063.516847) can0 080#00050201009F0000
(1614020063.517157) can0 28C#0000000000000000
(1614020063.517348) can0 38C#142E000000000000
(1614020063.517535) can0 48C#0000000000000000
(1614020063.519050) can0 4C2#0604000F00000000
(1614020063.519156) can0 211#0000000000000000
(1614020063.519596) can0 212#0000000000000000
(1614020063.519773) can0 540#0008000000001B00
(1614020063.520298) can0 210#0000000000000000
(1614020063.520481) can0 440#FFFFFFFD0000FFFA
(1614020063.520648) can0 341#0000000000000001
(1614020063.520836) can0 241#0000000002028BA2
(1614020063.520985) can0 340#0014001300000000
(1614020063.521409) can0 213#03E8000000000000
(1614020063.521748) can0 240#FFE9001000000000
(1614020063.521938) can0 2C0#FFE9001000140013
(1614020063.522134) can0 3C0#0000000000000000
(1614020063.522301) can0 4C0#0000000000000078
(1614020063.522472) can0 4AA#0036008D00140013
(1614020063.522688) can0 540#1DA2071E04D402BD
(1614020063.522854) can0 4AC#08140833080C0000
(1614020063.523046) can0 4BE#0000000000000000
(1614020063.523218) can0 4BF#FFE4000B00000000
(1614020063.526828) can0 080#00050201009F0000
(1614020063.527174) can0 28C#0000000000000000
(1614020063.527349) can0 38C#142E000000000000
(1614020063.527516) can0 48C#0000000000000000
(1614020063.528753) can0 211#0000000000000000
(1614020063.529214) can0 4C2#0604000F00000000
(1614020063.529328) can0 212#0000000000000000
(1614020063.529781) can0 540#0008000000001C00
(1614020063.529894) can0 210#0000000000000000
(1614020063.530367) can0 213#03E8000000000000
(1614020063.530530) can0 440#FFFFFFFC0000FFF9
(1614020063.530687) can0 341#0000000000000001
(1614020063.530844) can0 241#0000000002028BA2
(1614020063.531021) can0 340#0014001100000000
(1614020063.531196) can0 240#FFE9001000000000
(1614020063.531853) can0 540#28140833080D0000
(1614020063.532034) can0 2C0#FFE4000B00140013
(1614020063.532207) can0 3C0#0000000000000000
(1614020063.532377) can0 4C0#0000000000000078
(1614020063.532546) can0 4AA#0036008D00140013
(1614020063.532715) can0 4AC#08140833080C0000
(1614020063.532882) can0 4BE#0000000000000000
(1614020063.533111) can0 4BF#FFE9001000000000
(1614020063.536849) can0 080#00050201009F0000
(1614020063.537156) can0 28C#0000000000000000
(1614020063.537342) can0 38C#142E000000000000
(1614020063.537546) can0 48C#0000000000000000
(1614020063.539308) can0 4C2#0604000F00000000
(1614020063.539420) can0 211#0000000000000000
(1614020063.539854) can0 540#0008000000001D00
(1614020063.539976) can0 212#0000000000000000
(1614020063.540445) can0 210#0000000000000000
(1614020063.540608) can0 440#FFFFFFFD0000FFFA
(1614020063.540763) can0 341#0000000000000001
(1614020063.540920) can0 241#0000000002028BA2
(1614020063.541146) can0 340#0014001300000000
(1614020063.541578) can0 240#FFE4000B00000000
(1614020063.541691) can0 213#03E8000000000000
(1614020063.541902) can0 2C0#FFE9001000140013
(1614020063.542131) can0 3C0#0000000000000000
(1614020063.542291) can0 4C0#0000000000000078
(1614020063.542501) can0 4AA#002F009000140011
(1614020063.542711) can0 4AC#08140833080D0000
(1614020063.542872) can0 540#1DA2071F04D402BE
(1614020063.543051) can0 4BE#0000000000000000
(1614020063.543210) can0 4BF#FFE9001000000000
(1614020063.546830) can0 080#00050201009F0001
(1614020063.547130) can0 28C#0000000000000000
(1614020063.547298) can0 38C#142E000000000000
(1614020063.547463) can0 48C#0000000000000000
(1614020063.548872) can0 211#0000000000000000
(1614020063.549278) can0 4C2#0604000F00000000
(1614020063.549392) can0 212#0000000000000000
(1614020063.549862) can0 540#0008000000001E00
(1614020063.550025) can0 210#0000000000000000
(1614020063.550465) can0 213#03E8000000000000
(1614020063.550645) can0 440#FFFFFFFD0000FFFA
(1614020063.550852) can0 341#0000000000000001
(1614020063.551046) can0 340#0014001300000000
(1614020063.551325) can0 241#0000000002028BA2
(1614020063.551858) can0 540#28130833080D0000
(1614020063.552068) can0 2C0#FFE9001000140011
(1614020063.552239) can0 3C0#0000000000000000
(1614020063.552408) can0 4C0#0000000000000078
(1614020063.552578) can0 4AA#0036008D00140013
(1614020063.552752) can0 4AC#08140833080D0000
(1614020063.552921) can0 4BE#0000000000000000
(1614020063.553164) can0 4BF#FFE4000B00000000
(1614020063.556829) can0 080#00050201009F0000
(1614020063.557178) can0 28C#0000000000000000
(1614020063.557374) can0 48C#0000000000000000
(1614020063.557509) can0 38C#142E000000000000
(1614020063.559090) can0 211#0000000000000000
(1614020063.559269) can0 4C2#0604000F00000000
(1614020063.559721) can0 212#0000000000000000
(1614020063.560210) can0 540#0008000000001F00
(1614020063.560328) can0 210#0000000000000000
(1614020063.560802) can0 341#0000000000000001
(1614020063.561680) can0 213#03E8000000000000
(1614020063.561844) can0 241#0000000002028BA2
(1614020063.562049) can0 2C0#FFE4000B00140013
(1614020063.562236) can0 340#0010001300000000
(1614020063.562351) can0 3C0#0000000000000000
(1614020063.562517) can0 4C0#0000000000000078
(1614020063.562790) can0 4AA#002F008D00140013
(1614020063.562993) can0 4AC#08130833080D0000
(1614020063.563316) can0 4BF#FFE9001000000000
(1614020063.563442) can0 4BE#0000000000000000
(1614020063.564195) can0 540#1DA2071E04D402BD
(1614020063.566827) can0 080#00050201009F0000
(1614020063.567144) can0 28C#0000000000000000
(1614020063.567328) can0 38C#142E000000000000
(1614020063.567489) can0 48C#0000000000000000
(1614020063.568838) can0 211#0000000000000000
(1614020063.569270) can0 4C2#0604000F00000000
(1614020063.569392) can0 212#0000000000000000
(1614020063.569832) can0 210#0000000000000000
(1614020063.570046) can0 540#0008000000002000
(1614020063.570577) can0 213#03E8000000000000
(1614020063.570735) can0 440#FFFFFFFD0000FFFA
(1614020063.570892) can0 340#0014001100000000
(1614020063.571074) can0 341#0000000000000001
(1614020063.571274) can0 241#0000000002028BA2
(1614020063.571391) can0 240#FFE9001000000000
(1614020063.571750) can0 540#28140832080D0000
(1614020063.571916) can0 2C0#FFE9001000140013
(1614020063.572136) can0 3C0#0000000000000000
(1614020063.572333) can0 4C0#0000000000000078
(1614020063.572507) can0 4AA#002F009000100013
(1614020063.572686) can0 4AC#08130833080D0000
(1614020063.572902) can0 4BE#0000000000000000
(1614020063.573156) can0 4BF#FFE9001000000000
(1614020063.576849) can0 080#00050201009E0000
(1614020063.577132) can0 28C#0000000000000000
(1614020063.577306) can0 38C#142E000000000000
(1614020063.577469) can0 48C#0000000000000000
(1614020063.578897) can0 211#0000000000000000
(1614020063.579316) can0 4C2#0604000F00000000
(1614020063.579429) can0 212#0000000000000000
(1614020063.579852) can0 210#0000000000000000
(1614020063.580058) can0 540#0008000000002100
(1614020063.580507) can0 341#0000000000000001
(1614020063.580674) can0 241#0000000002028BA2
(1614020063.580841) can0 440#FFFFFFFD0000FFFA
(1614020063.580902) can0 213#03E8000000000000
(1614020063.581797) can0 340#0014000E00000000
(1614020063.582020) can0 2C0#FFE9001000100013
(1614020063.582211) can0 240#FFE9001000000000
(1614020063.582488) can0 4AA#002F008D00140011
(1614020063.582606) can0 4C0#0000000000000078
(1614020063.582778) can0 4AC#08140832080D0000
(1614020063.582986) can0 4BE#0000000000000000
(1614020063.583181) can0 540#1DA2071E04D402BD
(1614020063.583301) can0 4BF#FFE9001000000000
(1614020063.586847) can0 080#00050201009F0000
(1614020063.587143) can0 28C#0000000000000000
(1614020063.587332) can0 38C#142E000000000000
(1614020063.587505) can0 48C#0000000000000000
(1614020063.588972) can0 211#0000000000000000
(1614020063.589367) can0 4C2#0604000F00000000
(1614020063.589497) can0 212#0000000000000000
(1614020063.589933) can0 210#0000000000000000
(1614020063.590125) can0 341#0000000000000001
(1614020063.590318) can0 241#0000000002028BA2
(1614020063.590489) can0 540#0008000000002200
(1614020063.590769) can0 440#FFFFFFFD0000FFFA
(1614020063.591231) can0 213#03E8000000000000
(1614020063.591757) can0 340#0014001300000000
(1614020063.591928) can0 2C0#FFE9001000140011
(1614020063.592129) can0 240#FFE9001000000000
(1614020063.592302) can0 3C0#0000000000000000
(1614020063.592583) can0 4C0#0000000000000078
(1614020063.592702) can0 4AA#002F00900014000E
(1614020063.592868) can0 4AC#08140832080D0000
(1614020063.593163) can0 4BF#FFE9001000000000
(1614020063.593283) can0 4BE#0000000000000000
(1614020063.596830) can0 080#00050201009F0000
(1614020063.597132) can0 28C#0000000000000000
(1614020063.597297) can0 38C#142E000000000000
(1614020063.597463) can0 48C#0000000000000000
(1614020063.598636) can0 4C2#0604000F00000000
(1614020063.598746) can0 211#0000000000000000
(1614020063.599170) can0 212#0000000000000000
(1614020063.599618) can0 540#0008000000002300
(1614020063.599734) can0 210#0000000000000000
(1614020063.600181) can0 440#FFFFFFFD0000FFF9
(1614020063.600295) can0 213#03E8000000000000
(1614020063.600555) can0 341#0000000000000001
(1614020063.600722) can0 241#0000000002028BA2
(1614020063.600889) can0 340#0014001100000000
(1614020063.601883) can0 240#FFE9001000000000
(1614020063.602085) can0 2C0#FFE900100014000E
(1614020063.602255) can0 540#1DA2071E04D402BD
(1614020063.602373) can0 3C0#0000000000000000
(1614020063.602645) can0 4C0#0000000000000078
(1614020063.602763) can0 4AA#002F009000140013
(1614020063.602930) can0 4AC#08130833080D0000
(1614020063.603263) can0 4BF#FFE9001000000000
(1614020063.603395) can0 4BE#0000000000000000
(1614020063.606836) can0 080#00050201009F0000
(1614020063.607149) can0 28C#0000000000000000
(1614020063.607319) can0 38C#142E000000000000
(1614020063.607482) can0 48C#0000000000000000
(1614020063.608553) can0 4C2#0604000F00000000
(1614020063.609043) can0 211#0000000000000000
(1614020063.609469) can0 540#0008000000002400
(1614020063.609583) can0 212#0000000000000000
(1614020063.610062) can0 210#0000000000000000
(1614020063.610232) can0 341#0000000000000001
(1614020063.610416) can0 241#0000000002028BA2
(1614020063.610588) can0 440#FFFFFFFD0000FFFA
(1614020063.611027) can0 340#0014001300000000
(1614020063.611162) can0 213#03E8000000000000
(1614020063.611892) can0 240#FFE9001000000000
(1614020063.612124) can0 2C0#FFE9001000140013
(1614020063.612319) can0 540#28130833080D0000
(1614020063.612611) can0 4AA#002F009000140011
(1614020063.612726) can0 4C0#0000000000000078
(1614020063.612889) can0 4AC#08130833080D0000
(1614020063.613197) can0 4BF#FFE9001000000000
(1614020063.613312) can0 4BE#0000000000000000
(1614020063.616855) can0 080#00050201009F0000
(1614020063.617135) can0 28C#0000000000000000
(1614020063.617302) can0 38C#142E000000000000
(1614020063.617467) can0 48C#0000000000000000
(1614020063.618567) can0 4C2#0604000F00000000
(1614020063.619230) can0 211#0000000000000000
(1614020063.619456) can0 540#0008000000002500
(1614020063.619905) can0 212#0000000000000000
(1614020063.620158) can0 440#FFFFFFFD0000FFFA
(1614020063.620586) can0 210#0000000000000000
(1614020063.620759) can0 341#0000000000000001
(1614020063.620929) can0 241#0000000002028BA2
(1614020063.621136) can0 340#0010001100000000
(1614020063.621611) can0 213#03E8000000000000
(1614020063.621893) can0 2C0#FFE9001000140011
(1614020063.622104) can0 240#FFE9001500000000
(1614020063.622280) can0 3C0#0000000000000000
(1614020063.622550) can0 4AA#002F009000140013
(1614020063.622665) can0 4C0#0000000000000078
(1614020063.622831) can0 4AC#08130833080D0000
(1614020063.623047) can0 4BE#0000000000000000
(1614020063.623218) can0 4BF#FFE9001000000000
(1614020063.626849) can0 080#00050201009F0000
(1614020063.627148) can0 28C#0000000000000000
(1614020063.627320) can0 38C#142E000000000000
(1614020063.627484) can0 48C#0000000000000000
(1614020063.628564) can0 4C2#0604000F00000000
(1614020063.629040) can0 211#0000000000000000
(1614020063.629474) can0 540#0008000000002600
(1614020063.629588) can0 212#0000000000000000
(1614020063.630081) can0 210#0000000000000000
(1614020063.630273) can0 440#FFFFFFFC0000FFFA
(1614020063.630449) can0 241#0000000002028BA2
(1614020063.630578) can0 341#0000000000000001
(1614020063.630993) can0 340#0014001300000000
(1614020063.631137) can0 213#03E8000000000000
(1614020063.631901) can0 240#FFE9001000000000
(1614020063.632096) can0 2C0#FFE9001000140013
(1614020063.632284) can0 540#28130833080C0000
(1614020063.632418) can0 3C0#0000000000000000
(1614020063.632714) can0 4C0#0000000000000078
(1614020063.632836) can0 4AA#003D008D00100011
(1614020063.633042) can0 4AC#08130833080D0000
(1614020063.633191) can0 4BE#0000000000000000
(1614020063.633479) can0 4BF#FFE9001500000000
(1614020063.636853) can0 080#00050201009F0000
(1614020063.637146) can0 28C#0000000000000000
(1614020063.637325) can0 38C#142E000000000000
(1614020063.637533) can0 48C#0000000000000000
(1614020063.638766) can0 4C2#0604000F00000000
(1614020063.638878) can0 211#0000000000000000
(1614020063.639329) can0 212#0000000000000000
(1614020063.639496) can0 540#0008000000002700
(1614020063.640053) can0 210#0000000000000000
(1614020063.640216) can0 440#FFFFFFFC0000FFFA
(1614020063.640651) can0 213#03E8000000000000
(1614020063.640832) can0 341#0000000000000001
(1614020063.641060) can0 241#0000000002028BA2
(1614020063.641250) can0 340#0014001100000000
(1614020063.641561) can0 540#1DA2071F04D402BE
(1614020063.641924) can0 2C0#FFE9001500100011
(1614020063.642148) can0 3C0#0000000000000000
(1614020063.642320) can0 4C0#0000000000000078
(1614020063.642518) can0 4AA#0036009000140013
(1614020063.642705) can0 4AC#08130833080C0000
(1614020063.642975) can0 4BE#0000000000000000
(1614020063.643160) can0 4BF#FFE9001000000000
(1614020063.646844) can0 080#00050201009F0001
(1614020063.647157) can0 28C#0000000000000000
(1614020063.647329) can0 38C#142E000000000000
(1614020063.647503) can0 48C#0000000000000000
(1614020063.648647) can0 4C2#0604000F00000000
(1614020063.649082) can0 211#0000000000000000
(1614020063.649503) can0 540#0008000000002800
(1614020063.649615) can0 212#0000000000000000
(1614020063.650066) can0 210#0000000000000000
(1614020063.650246) can0 440#FFFFFFFD0000FFFA
(1614020063.650501) can0 341#0000000000000001
(1614020063.650674) can0 241#0000000002028BA2
(1614020063.651083) can0 340#0010001300000000
(1614020063.651198) can0 213#03E8000000000000
(1614020063.651897) can0 2C0#FFE9001000140013
(1614020063.652104) can0 240#FFE9001000000000
(1614020063.652278) can0 3C0#0000000000000000
(1614020063.652398) can0 540#28140833080D0000
(1614020063.652677) can0 4AA#0036008D00140011
(1614020063.652842) can0 4AC#08130833080C0000
(1614020063.653022) can0 4BE#0000000000000000
(1614020063.653191) can0 4BF#FFEE001500000000
(1614020063.656834) can0 080#00050201009F0000
(1614020063.657156) can0 28C#0000000000000000
(1614020063.657330) can0 38C#142E000000000000
(1614020063.657515) can0 48C#0000000000000000
(1614020063.658814) can0 4C2#0604000F00000000
(1614020063.658944) can0 211#0000000000000000
(1614020063.659420) can0 212#0000000000000000
(1614020063.659583) can0 540#0008000000002900
(1614020063.660085) can0 210#0000000000000000
(1614020063.660332) can0 440#FFFFFFFD0000FFFA
(1614020063.660791) can0 213#03E8000000000000
(1614020063.661055) can0 340#0014001100000000
(1614020063.661254) can0 341#0000000000000001
(1614020063.661422) can0 240#FFE9001000000000
(1614020063.661537) can0 241#0000000002028BA2
(1614020063.661911) can0 2C0#FFEE001500140011
(1614020063.662132) can0 3C0#0000000000000000
(1614020063.662317) can0 540#1DA2071E04D402BD
(1614020063.662517) can0 4C0#0000000000000078
(1614020063.662651) can0 4AA#0036008D00100013
(1614020063.662839) can0 4AC#08140833080D0000
(1614020063.663059) can0 4BE#0000000000000000
(1614020063.663250) can0 4BF#FFE9001000000000
(1614020063.666852) can0 080#00050201009F0000
(1614020063.667169) can0 28C#0000000000000000
(1614020063.667340) can0 38C#142E000000000000
(1614020063.667507) can0 48C#0000000000000000
(1614020063.668701) can0 4C2#0604000F00000000
(1614020063.669349) can0 211#0000000000000000
(1614020063.669568) can0 540#0008000000002A00
(1614020063.670093) can0 212#0000000000000000
(1614020063.670334) can0 440#FFFFFFFD0000FFF9
(1614020063.670776) can0 210#0000000000000000
(1614020063.671171) can0 340#0014001300000000
(1614020063.671299) can0 341#0000000000000001
(1614020063.671622) can0 241#0000000002028BA2
(1614020063.671683) can0 213#03E8000000000000
(1614020063.671896) can0 2C0#FFE9001000100013
(1614020063.672146) can0 3C0#0000000000000000
(1614020063.672344) can0 540#28130833080D0000
(1614020063.672543) can0 4C0#0000000000000078
(1614020063.672665) can0 4AA#0036008D00140011
(1614020063.673013) can0 4AC#08140833080D0000
(1614020063.673135) can0 4BE#0000000000000000
(1614020063.673300) can0 4BF#FFE9001000000000
(1614020063.676836) can0 080#00050201009F0000
(1614020063.677133) can0 28C#0000000000000000
(1614020063.677298) can0 38C#142E000000000000
(1614020063.677465) can0 48C#0000000000000000
(1614020063.678741) can0 4C2#0604000F00000000
(1614020063.679511) can0 211#0000000000000000
(1614020063.679674) can0 540#0008000000002B00
(1614020063.680146) can0 212#0000000000000000
(1614020063.680307) can0 440#FFFFFFFD0000FFFA
(1614020063.680815) can0 210#0000000000000000
(1614020063.681242) can0 340#0014001300000000
(1614020063.681361) can0 341#0000000000000001
(1614020063.683426) can0 213#03E8000000000000
(1614020063.683589) can0 2C0#FFE9001000140011
(1614020063.683799) can0 3C0#0000000000000000
(1614020063.683924) can0 241#0000000002028BA2
(1614020063.684188) can0 4C0#0000000000000078
(1614020063.684308) can0 4AA#0036008D00140013
(1614020063.684583) can0 4AC#08130833080D0000
(1614020063.684703) can0 4BE#0000000000000000
(1614020063.684922) can0 4BF#FFE9001000000000
(1614020063.686831) can0 080#00050201009F0000
(1614020063.687174) can0 28C#0000000000000000
(1614020063.687389) can0 48C#0000000000000000
(1614020063.687503) can0 38C#142E000000000000
(1614020063.689062) can0 211#0000000000000000
(1614020063.689642) can0 212#0000000000000000
(1614020063.690191) can0 210#0000000000000000
(1614020063.690736) can0 213#03E8000000000000
(1614020063.691893) can0 2C0#FFE9001000140013
(1614020063.692164) can0 3C0#0000000000000000
(1614020063.692424) can0 4C0#0000000000000078
(1614020063.692671) can0 4AA#002F009000140013
(1614020063.692944) can0 4BE#0000000000000000
(1614020063.693086) can0 4AC#08130833080D0000
(1614020063.693338) can0 4BF#FFE9001000000000
(1614020063.696851) can0 080#00050201009F0000
(1614020063.697252) can0 28C#0000000000000000
(1614020063.697365) can0 38C#142E000000000000
(1614020063.697580) can0 48C#0000000000000000
(1614020063.699625) can0 211#0000000000000000
(1614020063.700173) can0 212#0000000000000000
(1614020063.700710) can0 210#0000000000000000
(1614020063.701227) can0 213#03E8000000000000
(1614020063.701897) can0 2C0#FFE9001000140013
(1614020063.702162) can0 3C0#0000000000000000
(1614020063.702401) can0 4C0#0000000000000078
(1614020063.702629) can0 4AA#002F009000140013
(1614020063.702850) can0 4AC#08130833080D0000
(1614020063.703131) can0 4BE#0000000000000000
(1614020063.703376) can0 4BF#FFE9001000000000
(1614020063.706849) can0 080#00050201009F0000
(1614020063.707250) can0 28C#0000000000000000
(1614020063.707366) can0 38C#142E000000000000
(1614020063.707580) can0 48C#0000000000000000
(1614020063.709525) can0 211#0000000000000000
(1614020063.710082) can0 212#0000000000000000
(1614020063.710612) can0 210#0000000000000000
(1614020063.711150) can0 213#03E8000000000000
(1614020063.711901) can0 2C0#FFE9001000140013
(1614020063.712156) can0 3C0#0000000000000000
(1614020063.712379) can0 4C0#0000000000000078
(1614020063.712602) can0 4AA#0036008D00140013
(1614020063.712822) can0 4AC#08130833080D0000
(1614020063.713090) can0 4BE#0000000000000000
(1614020063.713343) can0 4BF#FFE9001000000000
(1614020063.716850) can0 080#00050201009F0000
(1614020063.717157) can0 28C#0000000000000000
(1614020063.717380) can0 48C#0000000000000000
(1614020063.717494) can0 38C#142E000000000000
(1614020063.719001) can0 211#0000000000000000
(1614020063.719603) can0 212#0000000000000000
(1614020063.720165) can0 210#0000000000000000
(1614020063.720730) can0 213#03E8000000000000
(1614020063.721895) can0 2C0#FFE9001000140013
(1614020063.722166) can0 3C0#0000000000000000
(1614020063.722407) can0 4C0#0000000000000078
(1614020063.722660) can0 4AA#0036008D00140013
(1614020063.722894) can0 4BE#0000000000000000
(1614020063.723038) can0 4AC#08130833080D0000
(1614020063.723287) can0 4BF#FFE9001000000000
(1614020063.726883) can0 080#00050201009F0000
(1614020063.727139) can0 28C#0000000000000000
(1614020063.727389) can0 48C#0000000000000000
(1614020063.727518) can0 38C#142E000000000000
(1614020063.728916) can0 211#0000000000000000
(1614020063.729476) can0 212#0000000000000000
(1614020063.730011) can0 210#0000000000000000
(1614020063.730490) can0 213#03E8000000000000
(1614020063.731897) can0 2C0#FFE9001000140013
(1614020063.732164) can0 3C0#0000000000000000
(1614020063.732333) can0 4C0#0000000000000078
(1614020063.732500) can0 4AA#003D008D00140013
(1614020063.732722) can0 4AC#08130833080D0000
(1614020063.732888) can0 4BE#0000000000000000
(1614020063.733118) can0 4BF#FFE9001000000000
(1614020063.736832) can0 080#00050201009F0000
(1614020063.737131) can0 28C#0000000000000000
(1614020063.737303) can0 38C#142E000000000000
(1614020063.737468) can0 48C#0000000000000000
(1614020063.738882) can0 211#0000000000000000
(1614020063.739346) can0 212#0000000000000000
(1614020063.739783) can0 210#0000000000000000
(1614020063.740244) can0 213#03E8000000000000
(1614020063.741915) can0 2C0#FFE9001000140013
(1614020063.742120) can0 3C0#0000000000000000
(1614020063.742294) can0 4C0#0000000000000078
(1614020063.742522) can0 4AA#0036008D00140013
(1614020063.742690) can0 4AC#08130833080D0000
(1614020063.742913) can0 4BE#0000000000000000
(1614020063.743151) can0 4BF#FFE9001000000000
(1614020063.746835) can0 080#00050201009F0001
(1614020063.747158) can0 28C#0000000000000000
(1614020063.747327) can0 38C#142E000000000000
(1614020063.747489) can0 48C#0000000000000000
(1614020063.748699) can0 211#0000000000000000
(1614020063.749143) can0 212#0000000000000000
(1614020063.749583) can0 210#0000000000000000
(1614020063.750059) can0 213#03E8000000000000
(1614020063.751903) can0 2C0#FFE9001000140013
(1614020063.752180) can0 3C0#0000000000000000
(1614020063.752374) can0 4C0#0000000000000078
(1614020063.752550) can0 4AA#002F008D00140013
(1614020063.752722) can0 4AC#08130833080D0000
(1614020063.752893) can0 4BE#0000000000000000
(1614020063.753171) can0 4BF#FFE9001000000000
(1614020063.756854) can0 080#00050201009E0000
(1614020063.757137) can0 28C#0000000000000000
(1614020063.757333) can0 38C#142E000000000000
(1614020063.757515) can0 48C#0000000000000000
(1614020063.758707) can0 211#0000000000000000
(1614020063.759159) can0 212#0000000000000000
(1614020063.759618) can0 210#0000000000000000
(1614020063.760090) can0 213#03E8000000000000
(1614020063.761920) can0 2C0#FFE9001000140013
(1614020063.762149) can0 3C0#0000000000000000
(1614020063.762332) can0 4C0#0000000000000078
(1614020063.762530) can0 4AA#0036008D00140013
(1614020063.762716) can0 4AC#08130833080D0000
(1614020063.762887) can0 4BE#0000000000000000
(1614020063.763123) can0 4BF#FFE9001000000000
(1614020063.766837) can0 080#00050201009F0000
(1614020063.767132) can0 28C#0000000000000000
(1614020063.767299) can0 38C#142E000000000000
(1614020063.767464) can0 48C#0000000000000000
(1614020063.768797) can0 211#0000000000000000
(1614020063.769283) can0 212#0000000000000000
(1614020063.769745) can0 210#0000000000000000
(1614020063.770176) can0 213#03E8000000000000
(1614020063.771928) can0 2C0#FFE9001000140013
(1614020063.772164) can0 3C0#0000000000000000
(1614020063.772342) can0 4C0#0000000000000078
(1614020063.772509) can0 4AA#002F009300140013
(1614020063.772681) can0 4AC#08130833080D0000
(1614020063.772909) can0 4BE#0000000000000000
(1614020063.773125) can0 4BF#FFE9001000000000
(1614020063.776838) can0 080#00050201009F0000
(1614020063.777134) can0 28C#0000000000000000
(1614020063.777299) can0 38C#142E000000000000
(1614020063.777461) can0 48C#0000000000000000
(1614020063.778784) can0 211#0000000000000000
(1614020063.779242) can0 212#0000000000000000
(1614020063.779680) can0 210#0000000000000000
(1614020063.780111) can0 213#03E8000000000000
(1614020063.781899) can0 2C0#FFE9001000140013
(1614020063.782144) can0 3C0#0000000000000000
(1614020063.782314) can0 4C0#0000000000000078
(1614020063.782486) can0 4AA#0036008D00140013
(1614020063.782704) can0 4AC#08130833080D0000
(1614020063.782923) can0 4BE#0000000000000000
(1614020063.783144) can0 4BF#FFE9001000000000
(1614020063.786849) can0 080#0005000D009F0000
(1614020063.787137) can0 28C#0000000000000000
(1614020063.787337) can0 38C#142E000000000000
(1614020063.787505) can0 48C#0000000000000000
(1614020063.788737) can0 211#0000000000000000
(1614020063.789250) can0 212#0000000000000000
(1614020063.789695) can0 210#0000000000000000
(1614020063.790112) can0 213#03E8000000000000
(1614020063.791909) can0 2C0#FFE9001000140013
(1614020063.792127) can0 3C0#0000000000000000
(1614020063.792299) can0 4C0#0000000000000078
(1614020063.792515) can0 4AA#0036008A00140013
(1614020063.792682) can0 4AC#08130833080D0000
(1614020063.792899) can0 4BE#0000000000000000
(1614020063.793128) can0 4BF#FFE9001000000000
(1614020063.796858) can0 080#0005000D009F0000
(1614020063.797137) can0 28C#0000000000000000
(1614020063.797348) can0 38C#142E000000000000
(1614020063.797531) can0 48C#0000000000000000
(1614020063.798747) can0 211#0000000000000000
(1614020063.799175) can0 212#0000000000000000
(1614020063.799647) can0 210#0000000000000000
(1614020063.800111) can0 213#03E8000000000000
(1614020063.801899) can0 2C0#FFE9001000140013
(1614020063.802180) can0 3C0#0000000000000000
(1614020063.802355) can0 4C0#0000000000000078
(1614020063.802524) can0 4AA#002F008D00140013
(1614020063.802695) can0 4AC#08130833080D0000
(1614020063.802914) can0 4BE#0000000000000000
(1614020063.803107) can0 4BF#FFE9001000000000
(1614020063.806833) can0 080#0005000D009E0000
(1614020063.807148) can0 28C#0000000000000000
(1614020063.807318) can0 38C#142E000000000000
(1614020063.807500) can0 48C#0000000000000000
(1614020063.808915) can0 211#0000000000000000
(1614020063.809426) can0 212#0000000000000000
(1614020063.809882) can0 210#0000000000000000
(1614020063.810366) can0 213#03E8000000000000
(1614020063.811912) can0 2C0#FFE9001000140013
(1614020063.812132) can0 3C0#0000000000000000
(1614020063.812304) can0 4C0#0000000000000078
(1614020063.812490) can0 4AA#002F008D00140013
(1614020063.812748) can0 4AC#08130833080D0000
(1614020063.812919) can0 4BE#0000000000000000
(1614020063.813141) can0 4BF#FFE9001000000000
(1614020063.816855) can0 080#0005000D009E0000
(1614020063.817155) can0 28C#0000000000000000
(1614020063.817353) can0 38C#142E000000000000
(1614020063.817551) can0 48C#0000000000000000
(1614020063.818860) can0 211#0000000000000000
(1614020063.819337) can0 212#0000000000000000
(1614020063.819784) can0 210#0000000000000000
(1614020063.820250) can0 213#03E8000000000000
(1614020063.821915) can0 2C0#FFE9001000140013
(1614020063.822153) can0 3C0#0000000000000000
(1614020063.822347) can0 4C0#0000000000000078
(1614020063.822519) can0 4AA#0036008A00140013
(1614020063.822699) can0 4AC#08130833080D0000
(1614020063.822929) can0 4BE#0000000000000000
(1614020063.823128) can0 4BF#FFE9001000000000
(1614020063.826833) can0 080#0005000D009E0000
(1614020063.827171) can0 28C#0000000000000000
(1614020063.827343) can0 38C#142E000000000000
(1614020063.827510) can0 48C#0000000000000000
(1614020063.829091) can0 211#0000000000000000
(1614020063.829522) can0 212#0000000000000000
(1614020063.829965) can0 210#0000000000000000
(1614020063.830383) can0 213#03E8000000000000
(1614020063.831900) can0 2C0#FFE9001000140013
(1614020063.832143) can0 3C0#0000000000000000
(1614020063.832310) can0 4C0#0000000000000078
(1614020063.832477) can0 4AA#003D008A00140013
(1614020063.832693) can0 4AC#08130833080D0000
(1614020063.832914) can0 4BE#0000000000000000
(1614020063.833133) can0 4BF#FFE9001000000000
(1614020063.836838) can0 080#0005000D009E0000
(1614020063.837138) can0 28C#0000000000000000
(1614020063.837346) can0 38C#142E000000000000
(1614020063.837514) can0 48C#0000000000000000
(1614020063.838621) can0 211#0000000000000000
(1614020063.839057) can0 212#0000000000000000
(1614020063.839485) can0 210#0000000000000000
(1614020063.839909) can0 213#03E8000000000000
(1614020063.841895) can0 2C0#FFE9001000140013
(1614020063.842146) can0 3C0#0000000000000000
(1614020063.842317) can0 4C0#0000000000000078
(1614020063.842490) can0 4AA#003D008D00140013
(1614020063.842717) can0 4AC#08130833080D0000
(1614020063.842884) can0 4BE#0000000000000000
(1614020063.843172) can0 4BF#FFE9001000000000
(1614020063.846880) can0 080#0005000D009E0001
(1614020063.847165) can0 28C#0000000000000000
(1614020063.847362) can0 38C#142E000000000000
(1614020063.847532) can0 48C#0000000000000000
(1614020063.848762) can0 211#0000000000000000
(1614020063.849261) can0 212#0000000000000000
(1614020063.849690) can0 210#0000000000000000
(1614020063.850122) can0 213#03E8000000000000
(1614020063.851909) can0 2C0#FFE9001000140013
(1614020063.852163) can0 3C0#0000000000000000
(1614020063.852355) can0 4C0#0000000000000078
(1614020063.852561) can0 4AA#003D008D00140013
(1614020063.852751) can0 4AC#08130833080D0000
(1614020063.852922) can0 4BE#0000000000000000
(1614020063.853135) can0 4BF#FFE9001000000000
(1614020063.856834) can0 080#0005000D009E0000
(1614020063.857157) can0 28C#0000000000000000
(1614020063.857327) can0 38C#142E000000000000
(1614020063.857491) can0 48C#0000000000000000
(1614020063.859283) can0 211#0000000000000000
(1614020063.859714) can0 212#0000000000000000
(1614020063.860137) can0 210#0000000000000000
(1614020063.860571) can0 213#03E8000000000000
(1614020063.861927) can0 2C0#FFE9001000140013
(1614020063.862148) can0 3C0#0000000000000000
(1614020063.862315) can0 4C0#0000000000000078
(1614020063.862486) can0 4AA#003D008A00140013
(1614020063.862710) can0 4AC#08130833080D0000
(1614020063.862929) can0 4BE#0000000000000000
(1614020063.863171) can0 4BF#FFE9001000000000
(1614020063.866834) can0 080#0005000D009E0000
(1614020063.867134) can0 28C#0000000000000000
(1614020063.867300) can0 38C#142E000000000000
(1614020063.867466) can0 48C#0000000000000000
(1614020063.868879) can0 211#0000000000000000
(1614020063.869355) can0 212#0000000000000000
(1614020063.869781) can0 210#0000000000000000
(1614020063.870229) can0 213#03E8000000000000
(1614020063.871901) can0 2C0#FFE9001000140013
(1614020063.872138) can0 3C0#0000000000000000
(1614020063.872307) can0 4C0#0000000000000078
(1614020063.872478) can0 4AA#0036008D00140013
(1614020063.872699) can0 4AC#08130833080D0000
(1614020063.872919) can0 4BE#0000000000000000
(1614020063.873125) can0 4BF#FFE9001000000000
(1614020063.876839) can0 080#0005000D009E0000
(1614020063.877163) can0 28C#0000000000000000
(1614020063.877352) can0 38C#142E000000000000
(1614020063.877547) can0 48C#0000000000000000
(1614020063.878667) can0 211#0000000000000000
(1614020063.879119) can0 212#0000000000000000
(1614020063.879552) can0 210#0000000000000000
(1614020063.879993) can0 213#03E8000000000000
(1614020063.881903) can0 2C0#FFE9001000140013
(1614020063.882149) can0 3C0#0000000000000000
(1614020063.882319) can0 4C0#0000000000000078
(1614020063.882487) can0 4AA#0036008D00140013
(1614020063.882705) can0 4AC#08130833080D0000
(1614020063.882925) can0 4BE#0000000000000000
(1614020063.883142) can0 4BF#FFE9001000000000
(1614020063.886853) can0 080#0005000D009E0000
(1614020063.887135) can0 28C#0000000000000000
(1614020063.887350) can0 38C#142E000000000000
(1614020063.887525) can0 48C#0000000000000000
(1614020063.888815) can0 211#0000000000000000
(1614020063.889286) can0 212#0000000000000000
(1614020063.889714) can0 210#0000000000000000
(1614020063.890132) can0 213#03E8000000000000
(1614020063.891901) can0 2C0#FFE9001000140013
(1614020063.892177) can0 3C0#0000000000000000
(1614020063.892367) can0 4C0#0000000000000078
(1614020063.892567) can0 4AA#003D008A00140013
(1614020063.892745) can0 4AC#08130833080D0000
(1614020063.892925) can0 4BE#0000000000000000
(1614020063.893122) can0 4BF#FFE9001000000000
(1614020063.896850) can0 080#0005000D009E0000
(1614020063.897147) can0 28C#0000000000000000
(1614020063.897315) can0 38C#142E000000000000
(1614020063.897520) can0 48C#0000000000000000
(1614020063.899115) can0 211#0000000000000000
(1614020063.899577) can0 212#0000000000000000
(1614020063.900054) can0 210#0000000000000000
(1614020063.900500) can0 213#03E8000000000000
(1614020063.901916) can0 2C0#FFE9001000140013
(1614020063.902123) can0 3C0#0000000000000000
(1614020063.902295) can0 4C0#0000000000000078
(1614020063.902515) can0 4AA#0036008A00140013
(1614020063.902682) can0 4AC#08130833080D0000
(1614020063.902905) can0 4BE#0000000000000000
(1614020063.903177) can0 4BF#FFE9001000000000
(1614020063.906834) can0 080#0005000D009E0000
(1614020063.907168) can0 28C#0000000000000000
(1614020063.907355) can0 38C#142E000000000000
(1614020063.907548) can0 48C#0000000000000000
(1614020063.909011) can0 211#0000000000000000
(1614020063.909475) can0 212#0000000000000000
(1614020063.909899) can0 210#0000000000000000
(1614020063.910349) can0 213#03E8000000000000
(1614020063.911900) can0 2C0#FFE9001000140013
(1614020063.912205) can0 3C0#0000000000000000
(1614020063.912377) can0 4C0#0000000000000078
(1614020063.912544) can0 4AA#0036009000140013
(1614020063.912719) can0 4AC#08130833080D0000
(1614020063.912886) can0 4BE#0000000000000000
(1614020063.913122) can0 4BF#FFE9001000000000
(1614020063.916834) can0 080#0005000D009E0000
(1614020063.917134) can0 28C#0000000000000000
(1614020063.917305) can0 38C#142E000000000000
(1614020063.917468) can0 48C#0000000000000000
(1614020063.918880) can0 211#0000000000000000
(1614020063.919352) can0 212#0000000000000000
(1614020063.919776) can0 210#0000000000000000
(1614020063.920251) can0 213#03E8000000000000
(1614020063.921900) can0 2C0#FFE9001000140013
(1614020063.922162) can0 3C0#0000000000000000
(1614020063.922386) can0 4C0#0000000000000078
(1614020063.922566) can0 4AA#002F008D00140013
(1614020063.922742) can0 4AC#08130833080D0000
(1614020063.922906) can0 4BE#0000000000000000
(1614020063.923179) can0 4BF#FFE9001000000000
(1614020063.926844) can0 080#0005000D009E0000
(1614020063.927156) can0 28C#0000000000000000
(1614020063.927341) can0 38C#142E000000000000
(1614020063.927529) can0 48C#0000000000000000
(1614020063.928857) can0 211#0000000000000000
(1614020063.929339) can0 212#0000000000000000
(1614020063.929790) can0 210#0000000000000000
(1614020063.930241) can0 213#03E8000000000000
(1614020063.931922) can0 2C0#FFE9001000140013
(1614020063.932145) can0 3C0#0000000000000000
(1614020063.932320) can0 4C0#0000000000000078
(1614020063.932509) can0 4AA#003D008A00140013
(1614020063.932694) can0 4AC#08130833080D0000
(1614020063.932935) can0 4BE#0000000000000000
(1614020063.933146) can0 4BF#FFE9001000000000
(1614020063.936839) can0 080#0005000D009E0000
(1614020063.937138) can0 28C#0000000000000000
(1614020063.937305) can0 38C#142E000000000000
(1614020063.937489) can0 48C#0000000000000000
(1614020063.938890) can0 211#0000000000000000
(1614020063.939346) can0 212#0000000000000000
(1614020063.939783) can0 210#0000000000000000
(1614020063.940232) can0 213#03E8000000000000
(1614020063.941901) can0 2C0#FFE9001000140013
(1614020063.942199) can0 3C0#0000000000000000
(1614020063.942387) can0 4C0#0000000000000078
(1614020063.942780) can0 4AA#003D008A00140013
(1614020063.943026) can0 4BE#0000000000000000
(1614020063.943154) can0 4AC#08130833080D0000
(1614020063.943425) can0 4BF#FFE9001000000000
(1614020063.946837) can0 080#0005000D009E0001
(1614020063.947154) can0 28C#0000000000000000
(1614020063.947342) can0 38C#142E000000000000
(1614020063.947528) can0 48C#0000000000000000
(1614020063.949085) can0 211#0000000000000000
(1614020063.949523) can0 212#0000000000000000
(1614020063.949971) can0 210#0000000000000000
(1614020063.950402) can0 213#03E8000000000000
(1614020063.951901) can0 2C0#FFE9001000140013
(1614020063.952155) can0 3C0#0000000000000000
(1614020063.952363) can0 4C0#0000000000000078
(1614020063.952554) can0 4AA#0036009000140013
(1614020063.952741) can0 4AC#08130833080D0000
(1614020063.952921) can0 4BE#0000000000000000
(1614020063.953152) can0 4BF#FFE9001000000000
(1614020063.956865) can0 080#0005000D009E0000
(1614020063.957149) can0 28C#0000000000000000
(1614020063.957332) can0 38C#142E000000000000
(1614020063.957501) can0 48C#0000000000000000
(1614020063.958753) can0 211#0000000000000000
(1614020063.959224) can0 212#0000000000000000
(1614020063.959647) can0 210#0000000000000000
(1614020063.960075) can0 213#03E8000000000000
(1614020063.961923) can0 2C0#FFE9001000140013
(1614020063.962148) can0 3C0#0000000000000000
(1614020063.962336) can0 4C0#0000000000000078
(1614020063.962540) can0 4AA#003D008A00140013
(1614020063.962709) can0 4AC#08130833080D0000
(1614020063.962910) can0 4BE#0000000000000000
(1614020063.963173) can0 4BF#FFE9001000000000
(1614020063.966839) can0 080#0005000D009E0000
(1614020063.967166) can0 28C#0000000000000000
(1614020063.967350) can0 38C#142E000000000000
(1614020063.967550) can0 48C#0000000000000000
(1614020063.968676) can0 211#0000000000000000
(1614020063.969120) can0 212#0000000000000000
(1614020063.969555) can0 210#0000000000000000
(1614020063.970053) can0 213#03E8000000000000
(1614020063.971964) can0 2C0#FFE9001000140013
(1614020063.972140) can0 3C0#0000000000000000
(1614020063.972306) can0 4C0#0000000000000078
(1614020063.972524) can0 4AA#0036008D00140013
(1614020063.972687) can0 4AC#08130833080D0000
(1614020063.972906) can0 4BE#0000000000000000
(1614020063.973179) can0 4BF#FFE9001000000000
(1614020063.976837) can0 080#0005000D009E0000
(1614020063.977140) can0 28C#0000000000000000
(1614020063.977306) can0 38C#142E000000000000
(1614020063.977472) can0 48C#0000000000000000
(1614020063.978757) can0 211#0000000000000000
(1614020063.979180) can0 212#0000000000000000
(1614020063.979602) can0 210#0000000000000000
(1614020063.980052) can0 213#03E8000000000000
(1614020063.981918) can0 2C0#FFE9001000140013
(1614020063.982148) can0 3C0#0000000000000000
(1614020063.982367) can0 4C0#0000000000000078
(1614020063.982537) can0 4AA#0036009000140013
(1614020063.982722) can0 4AC#08130833080D0000
(1614020063.982901) can0 4BE#0000000000000000
(1614020063.983178) can0 4BF#FFE9001000000000
(1614020063.986840) can0 080#0005000D009E0000
(1614020063.987169) can0 28C#0000000000000000
(1614020063.987361) can0 38C#142E000000000000
(1614020063.987558) can0 48C#0000000000000000
(1614020063.988759) can0 211#0000000000000000
(1614020063.989206) can0 212#0000000000000000
(1614020063.989627) can0 210#0000000000000000
(1614020063.990080) can0 213#03E8000000000000
(1614020063.991926) can0 2C0#FFE9001000140013
(1614020063.992142) can0 3C0#0000000000000000
(1614020063.992320) can0 4C0#0000000000000078
(1614020063.992490) can0 4AA#0036008D00140013
(1614020063.992717) can0 4AC#08130833080D0000
(1614020063.992935) can0 4BE#0000000000000000
(1614020063.993169) can0 4BF#FFE9001000000000
(1614020063.996839) can0 080#0005000D009E0000
(1614020063.997140) can0 28C#0000000000000000
(1614020063.997315) can0 38C#142E000000000000
(1614020063.997484) can0 48C#0000000000000000
(1614020063.998657) can0 211#0000000000000000
(1614020063.999081) can0 212#0000000000000000
(1614020063.999504) can0 210#0000000000000000
(1614020063.999928) can0 213#03E8000000000000
(1614020064.001907) can0 2C0#FFE9001000140013
(1614020064.002132) can0 3C0#0000000000000000
(1614020064.002311) can0 4C0#0000000000000078
(1614020064.002530) can0 4AA#002F009000140013
(1614020064.002707) can0 4AC#08130833080D0000
(1614020064.002925) can0 4BE#0000000000000000
(1614020064.003134) can0 4BF#FFE9001000000000
(1614020064.006840) can0 080#0005000D009E0000
(1614020064.007146) can0 28C#0000000000000000
(1614020064.007316) can0 38C#142E000000000000
(1614020064.007481) can0 48C#0000000000000000
(1614020064.009145) can0 211#0000000000000000
(1614020064.009581) can0 212#0000000000000000
(1614020064.010043) can0 210#0000000000000000
(1614020064.010501) can0 213#03E8000000000000
(1614020064.011902) can0 2C0#FFE9001000140013
(1614020064.012165) can0 3C0#0000000000000000
(1614020064.012368) can0 4C0#0000000000000078
(1614020064.012554) can0 4AA#0036008D00140013
(1614020064.012758) can0 4AC#08130833080D0000
(1614020064.012966) can0 4BE#0000000000000000
(1614020064.013139) can0 4BF#FFE9001000000000
(1614020064.016840) can0 080#0005000D009E0000
(1614020064.017145) can0 28C#0000000000000000
(1614020064.017314) can0 38C#142E000000000000
(1614020064.017479) can0 48C#0000000000000000
(1614020064.018864) can0 211#0000000000000000
(1614020064.019326) can0 212#0000000000000000
(1614020064.019778) can0 210#0000000000000000
(1614020064.020254) can0 213#03E8000000000000
(1614020064.021910) can0 2C0#FFE9001000140013
(1614020064.022170) can0 3C0#0000000000000000
(1614020064.022357) can0 4C0#0000000000000078
(1614020064.022561) can0 4AA#0036009300140013
(1614020064.022733) can0 4AC#08130833080D0000
(1614020064.022902) can0 4BE#0000000000000000
(1614020064.023162) can0 4BF#FFE9001000000000
(1614020064.026846) can0 080#0005000D009E0000
(1614020064.027137) can0 28C#0000000000000000
(1614020064.027306) can0 38C#142E000000000000
(1614020064.027469) can0 48C#0000000000000000
(1614020064.028804) can0 211#0000000000000000
(1614020064.029273) can0 212#0000000000000000
(1614020064.029694) can0 210#0000000000000000
(1614020064.030114) can0 213#03E8000000000000
(1614020064.031907) can0 2C0#FFE9001000140013
(1614020064.032155) can0 3C0#0000000000000000
(1614020064.032325) can0 4C0#0000000000000078
(1614020064.032494) can0 4AA#0036008D00140013
(1614020064.032712) can0 4AC#08130833080D0000
(1614020064.032930) can0 4BE#0000000000000000
(1614020064.033120) can0 4BF#FFE9001000000000
(1614020064.036846) can0 080#0005000D009E0000
(1614020064.037145) can0 28C#0000000000000000
(1614020064.037314) can0 38C#142E000000000000
(1614020064.037479) can0 48C#0000000000000000
(1614020064.038900) can0 211#0000000000000000
(1614020064.039400) can0 212#0000000000000000
(1614020064.039871) can0 210#0000000000000000
(1614020064.040381) can0 213#03E8000000000000
(1614020064.041924) can0 2C0#FFE9001000140013
(1614020064.042120) can0 3C0#0000000000000000
(1614020064.042302) can0 4C0#0000000000000078
(1614020064.042555) can0 4AA#0036008D00140013
(1614020064.042761) can0 4AC#08130833080D0000
(1614020064.042934) can0 4BE#0000000000000000
(1614020064.043150) can0 4BF#FFE9001000000000
(1614020064.046845) can0 080#0005000D009E0001
(1614020064.047162) can0 28C#0000000000000000
(1614020064.047362) can0 38C#142E000000000000
(1614020064.047550) can0 48C#0000000000000000
(1614020064.049132) can0 211#0000000000000000
(1614020064.049581) can0 212#0000000000000000
(1614020064.050059) can0 210#0000000000000000
(1614020064.050485) can0 213#03E8000000000000
(1614020064.051903) can0 2C0#FFE9001000140013
(1614020064.052190) can0 3C0#0000000000000000
(1614020064.052387) can0 4C0#0000000000000078
(1614020064.052560) can0 4AA#003D008D00140013
(1614020064.052765) can0 4AC#08130833080D0000
