(1614018833.733772) can0 01800A00#
(1614018833.739141) can0 01800A00#
(1614018833.744502) can0 01A00A00#
(1614018833.749884) can0 01A00A00#
(1614018833.755252) can0 00800A00#
(1614018833.760609) can0 00800A00#
(1614018833.766015) can0 00600A00#
(1614018833.771365) can0 00600A00#
(1614018833.776769) can0 00C00A00#
(1614018833.782119) can0 00C00A00#
(1614018833.787462) can0 00A00A00#
(1614018833.792827) can0 00A00A00#
(1614018833.798211) can0 00400A00#
(1614018833.803571) can0 00400A00#
(1614018833.808992) can0 00200A00#
(1614018833.814315) can0 00200A00#
(1614018833.819691) can0 01000A00#
(1614018833.825105) can0 01000A00#
(1614018833.830445) can0 01200A00#
(1614018833.835801) can0 01200A00#
(1614018833.841198) can0 01400A00#
(1614018833.846571) can0 01400A00#
(1614018833.851978) can0 01600A00#
(1614018833.857311) can0 01600A00#
(1614018833.862678) can0 03000A00#
(1614018833.868072) can0 03000A00#
(1614018833.873401) can0 03200A00#
(1614018833.878767) can0 03200A00#
(1614018834.161589) can0 343#00000001FFFFFFFF
(1614018834.161762) can0 343#0006FFFFFFFFFFFF
(1614018834.162222) can0 540#30000001FFFFFFFF
(1614018834.162406) can0 540#3006FFFFFFFFFFFF
(1614018834.162595) can0 343#000CFFFFFFFFFFFF
(1614018834.162761) can0 343#0012FFFF00070001
(1614018834.163057) can0 540#300CFFFFFFFFFFFF
(1614018834.163231) can0 343#001803E800000015
(1614018834.163399) can0 540#3012FFFF00070001
(1614018834.163563) can0 343#001EECCCFFFF0D9D
(1614018834.163727) can0 540#301803E800000015
(1614018834.163942) can0 343#002400001900ECCC
(1614018834.164128) can0 540#301EECCCFFFF0D9D
(1614018834.164343) can0 343#002AFFFF0BD62D00
(1614018834.164509) can0 540#302400001900ECCC
(1614018834.164740) can0 343#0030D300FEA5FFFF
(1614018834.164903) can0 540#302AFFFF0BD62D00
(1614018834.165165) can0 343#003608B8F9C00640
(1614018834.165332) can0 540#3030D300FEA5FFFF
(1614018834.165550) can0 343#003C000A016B0000
(1614018834.165713) can0 540#303608B8F9C00640
(1614018834.165937) can0 343#00420942F9C00640
(1614018834.166130) can0 540#303C000A016B0000
(1614018834.166396) can0 343#0048000A00000000
(1614018834.166611) can0 540#30420942F9C00640
(1614018834.166779) can0 343#004E000000000000
(1614018834.166995) can0 540#3048000A00000000
(1614018834.167161) can0 343#0054000000001280
(1614018834.167323) can0 540#304E000000000000
(1614018834.167540) can0 343#005A000000000000
(1614018834.167708) can0 540#3054000000001280
(1614018834.167944) can0 343#0060000000001052
(1614018834.168167) can0 540#305A000000000000
(1614018834.168332) can0 343#0066000004CF0000
(1614018834.168494) can0 540#3060000000001052
(1614018834.168760) can0 343#006C0000F754FFFF
(1614018834.168927) can0 540#3066000004CF0000
(1614018834.169186) can0 343#007207B500000000
(1614018834.169386) can0 540#306C0000F754FFFF
(1614018834.169583) can0 343#0078000A00000000
(1614018834.169770) can0 540#307207B500000000
(1614018834.169968) can0 343#007E00000000099A
(1614018834.170135) can0 540#3078000A00000000
(1614018834.170352) can0 343#0084000002B60000
(1614018834.170514) can0 540#307E00000000099A
(1614018834.170746) can0 343#008A000000000000
(1614018834.170911) can0 540#3084000002B60000
(1614018834.171171) can0 343#0090000000000000
(1614018834.171337) can0 540#308A000000000000
(1614018834.171553) can0 343#00960000000030A0
(1614018834.171718) can0 540#3090000000000000
(1614018834.172362) can0 540#30960000000030A0
(1614018834.181086) can0 080#0001020100A00000
(1614018834.181345) can0 28C#0000000000000000
(1614018834.181528) can0 38C#142E000000000000
(1614018834.181705) can0 48C#0000000000000000
(1614018834.181816) can0 618#4020011600000000
(1614018834.182590) can0 1BD#AC0000003F9F0FE2
(1614018834.183045) can0 4C2#0307001700000000
(1614018834.183736) can0 540#0008000000000000
(1614018834.183932) can0 440#FFFFFFFD0000FFF9
(1614018834.184627) can0 340#0014001300000000
(1614018834.184795) can0 341#0000000000000001
(1614018834.185004) can0 240#FFE9001000000000
(1614018834.185199) can0 241#00000000001F8BA2
(1614018834.185781) can0 540#28140832080D0000
(1614018834.186139) can0 2C0#0000000000000000
(1614018834.186324) can0 3C0#0000000000000000
(1614018834.186489) can0 4C0#0000000000000000
(1614018834.186712) can0 4AA#002F008D00000000
(1614018834.186943) can0 4AC#0000000000000000
(1614018834.187128) can0 4BE#0000000000000000
(1614018834.187290) can0 4BF#0000000000000000
(1614018834.191059) can0 080#00010201009D0000
(1614018834.191351) can0 28C#0000000000000000
(1614018834.191519) can0 38C#142E000000000000
(1614018834.191683) can0 48C#0000000000000000
(1614018834.192252) can0 1BD#AD000B84111F0000
(1614018834.193052) can0 4C2#0307001700000000
(1614018834.193733) can0 540#0008000000000100
(1614018834.193897) can0 440#FFFFFFFC0000FFFA
(1614018834.194640) can0 340#0010001300000000
(1614018834.194807) can0 341#0000000000000001
(1614018834.195006) can0 240#FFE9000B00000000
(1614018834.195171) can0 241#0000000000028BA2
(1614018834.195769) can0 540#1DA2071E04D402BE
(1614018834.196115) can0 2C0#0000000000000000
(1614018834.196328) can0 3C0#0000000000000000
(1614018834.196490) can0 4C0#0000000000000078
(1614018834.196704) can0 4AA#002F008D00140013
(1614018834.196918) can0 4AC#08140832080D0000
(1614018834.197165) can0 4BE#0000000000000000
(1614018834.197349) can0 4BF#FFE9001000000000
(1614018834.201100) can0 080#00010201009D0000
(1614018834.201356) can0 28C#0000000000000000
(1614018834.201563) can0 38C#142E000000000000
(1614018834.201745) can0 48C#0000000000000000
(1614018834.203127) can0 4C2#0307001700000000
(1614018834.203776) can0 540#0008000000000200
(1614018834.203942) can0 440#FFFFFFFE0000FFFB
(1614018834.204680) can0 340#0014001300000000
(1614018834.204847) can0 240#FFE9001000000000
(1614018834.205040) can0 341#0000000000000001
(1614018834.205223) can0 241#0600000410028BA2
(1614018834.205818) can0 540#28140833080C0000
(1614018834.206167) can0 2C0#FFE9001000140013
(1614018834.206333) can0 3C0#0000000000000000
(1614018834.206500) can0 4C0#0000000000000078
(1614018834.206719) can0 4AA#0036008D00100013
(1614018834.206881) can0 4AC#08140832080D0000
(1614018834.207128) can0 4BE#0000000000000000
(1614018834.207321) can0 4BF#FFE9000B00000000
(1614018834.211047) can0 080#00050201009D0000
(1614018834.211327) can0 28C#0000000000000000
(1614018834.211501) can0 38C#142E000000000000
(1614018834.211666) can0 48C#0000000000000000
(1614018834.211833) can0 620#4020011600000000
(1614018834.213139) can0 4C2#0307001700000000
(1614018834.213823) can0 540#0008000000000300
(1614018834.214028) can0 440#FFFFFFFD0000FFF9
(1614018834.214723) can0 340#0014001300000000
(1614018834.214896) can0 240#FFE9000B00000000
(1614018834.215099) can0 341#0000000000000001
(1614018834.215266) can0 241#0000000000028BA2
(1614018834.215860) can0 540#1DA2071F04D502BD
(1614018834.216132) can0 2C0#FFE9000B00100013
(1614018834.216300) can0 3C0#0000000000000000
(1614018834.216523) can0 4C0#0000000000000078
(1614018834.216695) can0 4AA#002F008D00140013
(1614018834.216927) can0 4AC#08140833080C0000
(1614018834.217133) can0 4BE#0000000000000000
(1614018834.217331) can0 4BF#FFE9001000000000
(1614018834.221086) can0 080#00050201009D0000
(1614018834.221356) can0 28C#0000000000000000
(1614018834.221523) can0 38C#142E000000000000
(1614018834.221689) can0 48C#0000000000000000
(1614018834.223162) can0 4C2#0604000F00000000
(1614018834.223882) can0 540#0008000000000400
(1614018834.224074) can0 440#FFFFFFFD0000FFFA
(1614018834.224780) can0 340#0014001300000000
(1614018834.224971) can0 240#FFE9000B00000000
(1614018834.225152) can0 341#0000000000000001
(1614018834.225317) can0 241#0000000004028BA2
(1614018834.225921) can0 540#28140833080D0000
(1614018834.226115) can0 2C0#FFE9001000140013
(1614018834.226333) can0 3C0#0000000000000000
(1614018834.226529) can0 4C0#0000000000000078
(1614018834.226695) can0 4AA#002F008D00140013
(1614018834.226928) can0 4AC#08140833080C0000
(1614018834.227117) can0 4BE#0000000000000000
(1614018834.227295) can0 4BF#FFE9000B00000000
(1614018834.231102) can0 080#00050201009D0000
(1614018834.231362) can0 28C#0000000000000000
(1614018834.231533) can0 38C#142E000000000000
(1614018834.231722) can0 48C#0000000000000000
(1614018834.233185) can0 4C2#0604000F00000000
(1614018834.233880) can0 540#0008000000000500
(1614018834.234081) can0 440#FFFFFFFD0000FFFA
(1614018834.234789) can0 340#0014001100000000
(1614018834.234981) can0 240#FFE9000B00000000
(1614018834.235561) can0 341#0000000000000001
(1614018834.235744) can0 241#0000000001028BA2
(1614018834.235909) can0 540#1DA2071E04D402BE
(1614018834.236170) can0 2C0#FFE9000B00140013
(1614018834.236353) can0 3C0#0000000000000000
(1614018834.236518) can0 4C0#0000000000000078
(1614018834.236771) can0 4AA#0029008A00140013
(1614018834.236938) can0 4AC#08140833080D0000
(1614018834.237134) can0 4BE#0000000000000000
(1614018834.237304) can0 4BF#FFE9000B00000000
(1614018834.241093) can0 080#00050201009D0000
(1614018834.241336) can0 28C#0000000000000000
(1614018834.241500) can0 38C#142E000000000000
(1614018834.241663) can0 48C#0000000000000000
(1614018834.241830) can0 624#4020011600000000
(1614018834.243217) can0 4C2#0604000F00000000
(1614018834.243918) can0 540#0008000000000600
(1614018834.244105) can0 440#FFFFFFFD0000FFFB
(1614018834.244271) can0 341#0000000000000001
(1614018834.244433) can0 241#0000000002028BA2
(1614018834.244819) can0 340#0014001100000000
(1614018834.246105) can0 240#FFE9000B00000000
(1614018834.246271) can0 2C0#FFE9000B00140013
(1614018834.246437) can0 3C0#0000000000000000
(1614018834.246604) can0 4C0#0000000000000078
(1614018834.246767) can0 4AA#0036008D00140011
(1614018834.246931) can0 4AC#08140833080D0000
(1614018834.247117) can0 540#28140830080D0000
(1614018834.247303) can0 4BE#0000000000000000
(1614018834.247485) can0 4BF#FFE9000B00000000
(1614018834.251073) can0 080#00050201009D0000
(1614018834.251355) can0 28C#0000000000000000
(1614018834.251535) can0 38C#142E000000000000
(1614018834.251697) can0 48C#0000000000000000
(1614018834.253244) can0 4C2#0604000F00000000
(1614018834.253992) can0 540#0008000000000700
(1614018834.254185) can0 440#FFFFFFFD0000FFFA
(1614018834.254369) can0 341#0000000000000001
(1614018834.254535) can0 241#0000000002028BA2
(1614018834.254864) can0 340#0014001100000000
(1614018834.256138) can0 240#FFE9001000000000
(1614018834.256306) can0 2C0#FFE9000B00140011
(1614018834.256476) can0 3C0#0000000000000000
(1614018834.256647) can0 4C0#0000000000000078
(1614018834.256814) can0 4AA#002F009000140011
(1614018834.257016) can0 4AC#08140830080D0000
(1614018834.257200) can0 540#1DA2071E04D402BD
(1614018834.257319) can0 4BE#0000000000000000
(1614018834.257485) can0 4BF#FFE9000B00000000
(1614018834.261084) can0 080#00050201009D0000
(1614018834.261366) can0 28C#0000000000000000
(1614018834.261553) can0 38C#142E000000000000
(1614018834.261736) can0 48C#0000000000000000
(1614018834.263315) can0 4C2#0604000F00000000
(1614018834.264069) can0 540#0008000000000800
(1614018834.264251) can0 440#0000FFFD0000FFFA
(1614018834.264419) can0 341#0000000000000001
(1614018834.264582) can0 241#0000000002028BA2
(1614018834.264942) can0 340#0014001300000000
(1614018834.266142) can0 2C0#FFE9000B00140011
(1614018834.266305) can0 240#FFE9001000000000
(1614018834.266470) can0 3C0#0000000000000000
(1614018834.266636) can0 4C0#0000000000000078
(1614018834.266799) can0 4AA#002F008D00140011
(1614018834.266992) can0 4AC#08140830080D0000
(1614018834.267185) can0 540#28140833080D0000
(1614018834.267320) can0 4BE#0000000000000000
(1614018834.267506) can0 4BF#FFE9001000000000
(1614018834.271068) can0 080#00050201009D0000
(1614018834.271342) can0 28C#0000000000000000
(1614018834.271538) can0 38C#142E000000000000
(1614018834.271732) can0 48C#0000000000000000
(1614018834.273362) can0 4C2#0604000F00000000
(1614018834.274086) can0 540#0008000000000900
(1614018834.274270) can0 440#FFFFFFFD0000FFF9
(1614018834.274466) can0 341#0000000000000001
(1614018834.274641) can0 241#0000000002028BA2
(1614018834.274985) can0 340#0014001100000000
(1614018834.276133) can0 2C0#FFE9001000140011
(1614018834.276317) can0 240#FFE9001000000000
(1614018834.276508) can0 3C0#0000000000000000
(1614018834.276691) can0 4C0#0000000000000078
(1614018834.276857) can0 4AA#0036008D00140013
(1614018834.277088) can0 4AC#08140833080D0000
(1614018834.277270) can0 540#1DA2071B04D402BE
(1614018834.277546) can0 4BF#FFE9001000000000
(1614018834.281079) can0 080#00050201009D0001
(1614018834.281368) can0 28C#0000000000000000
(1614018834.281534) can0 38C#142E000000000000
(1614018834.281698) can0 48C#0000000000000000
(1614018834.282658) can0 4C2#0604000F00000000
(1614018834.283384) can0 540#0008000000000A00
(1614018834.284091) can0 440#FFFFFFFD0000FFFA
(1614018834.284257) can0 340#0014001100000000
(1614018834.284471) can0 341#0000000000000001
(1614018834.284633) can0 241#0000000002028BA2
(1614018834.285006) can0 240#FFE9001000000000
(1614018834.286143) can0 2C0#FFE9001000140013
(1614018834.286306) can0 540#28140833080D0000
(1614018834.286466) can0 3C0#0000000000000000
(1614018834.286627) can0 4C0#0000000000000078
(1614018834.286786) can0 4AA#0036009000140011
(1614018834.286947) can0 4AC#08140833080D0000
(1614018834.287126) can0 4BE#0000000000000000
(1614018834.287343) can0 4BF#FFE9001000000000
(1614018834.291069) can0 080#00050201009D0000
(1614018834.291344) can0 28C#0000000000000000
(1614018834.291508) can0 38C#142E000000000000
(1614018834.291667) can0 48C#0000000000000000
(1614018834.292681) can0 4C2#0604000F00000000
(1614018834.293398) can0 540#0008000000000B00
(1614018834.294142) can0 440#FFFFFFFD0000FFF9
(1614018834.294305) can0 340#0014001300000000
(1614018834.294519) can0 341#0000000000000001
(1614018834.294685) can0 241#0000000002028BA2
(1614018834.295049) can0 240#FFE9001000000000
(1614018834.296166) can0 2C0#FFE9001000140011
(1614018834.296350) can0 540#1DA2071E04D402BE
(1614018834.296543) can0 3C0#0000000000000000
(1614018834.296672) can0 4C0#0000000000000078
(1614018834.296845) can0 4AA#0029009000140011
(1614018834.297191) can0 4BE#0000000000000000
(1614018834.297326) can0 4AC#08140833080D0000
(1614018834.297545) can0 4BF#FFE9001000000000
(1614018834.301086) can0 080#00050201009D0000
(1614018834.301358) can0 28C#0000000000000000
(1614018834.301531) can0 38C#142E000000000000
(1614018834.301722) can0 48C#0000000000000000
(1614018834.302837) can0 4C2#0604000F00000000
(1614018834.303519) can0 540#0008000000000C00
(1614018834.304247) can0 440#FFFFFFFD0000FFFA
(1614018834.304604) can0 341#0000000000000001
(1614018834.304768) can0 241#0000000002028BA2
(1614018834.305014) can0 340#0014001100000000
(1614018834.306138) can0 2C0#FFE9001000140011
(1614018834.306306) can0 240#FFE9000B00000000
(1614018834.306472) can0 3C0#0000000000000000
(1614018834.306586) can0 540#28140832080D0000
(1614018834.306753) can0 4AA#002F009000140013
(1614018834.307053) can0 4AC#08140833080D0000
(1614018834.307226) can0 4BE#0000000000000000
(1614018834.307411) can0 4BF#FFE9001000000000
(1614018834.311105) can0 080#00050201009E0000
(1614018834.311376) can0 28C#0000000000000000
(1614018834.311564) can0 38C#142E000000000000
(1614018834.311759) can0 48C#0000000000000000
(1614018834.312707) can0 4C2#0604000F00000000
(1614018834.313405) can0 540#0008000000000D00
(1614018834.314129) can0 440#FFFFFFFD0000FFFA
(1614018834.314293) can0 340#0014001300000000
(1614018834.314689) can0 341#0000000000000001
(1614018834.314852) can0 241#0000000002028BA2
(1614018834.315046) can0 240#FFE9000B00000000
(1614018834.316154) can0 2C0#FFE9001000140013
(1614018834.316320) can0 540#1DA4071F04D402BD
(1614018834.316494) can0 3C0#0000000000000000
(1614018834.316663) can0 4C0#0000000000000078
(1614018834.316829) can0 4AA#002F008D00140011
(1614018834.317025) can0 4AC#08140832080D0000
(1614018834.317208) can0 4BE#0000000000000000
(1614018834.317406) can0 4BF#FFE9000B00000000
(1614018834.321067) can0 080#00050201009E0000
(1614018834.321341) can0 28C#0000000000000000
(1614018834.321529) can0 38C#142E000000000000
(1614018834.321716) can0 48C#0000000000000000
(1614018834.322726) can0 4C2#0604000F00000000
(1614018834.323457) can0 540#0008000000000E00
(1614018834.324154) can0 440#FFFFFFFD0000FFFA
(1614018834.324320) can0 340#0014001100000000
(1614018834.324809) can0 341#0000000000000001
(1614018834.325007) can0 241#0000000002028BA2
(1614018834.325175) can0 240#FFE9001000000000
(1614018834.326144) can0 2C0#FFE9000B00140011
(1614018834.326309) can0 3C0#0000000000000000
(1614018834.326488) can0 540#28140833080D0000
(1614018834.326654) can0 4C0#0000000000000078
(1614018834.326815) can0 4AA#002F009300140013
(1614018834.327005) can0 4AC#08140832080D0000
(1614018834.327191) can0 4BE#0000000000000000
(1614018834.327353) can0 4BF#FFE9000B00000000
(1614018834.331060) can0 080#00050201009E0000
(1614018834.331350) can0 28C#0000000000000000
(1614018834.331514) can0 38C#142E000000000000
(1614018834.331675) can0 48C#0000000000000000
(1614018834.332715) can0 4C2#0604000F00000000
(1614018834.333417) can0 540#0008000000000F00
(1614018834.334143) can0 440#FFFFFFFD0000FFFA
(1614018834.334306) can0 340#0014001100000000
(1614018834.334520) can0 240#FFE9001000000000
(1614018834.334848) can0 341#0000000000000001
(1614018834.335041) can0 241#0000000002028BA2
(1614018834.335217) can0 540#1DA2071F04D402BD
(1614018834.336145) can0 2C0#FFE9000B00140013
(1614018834.336313) can0 3C0#0000000000000000
(1614018834.336527) can0 4C0#0000000000000078
(1614018834.336692) can0 4AA#002F009000140011
(1614018834.336906) can0 4AC#08140833080D0000
(1614018834.337140) can0 4BE#0000000000000000
(1614018834.337316) can0 4BF#FFE9001000000000
(1614018834.341068) can0 080#00050201009E0000
(1614018834.341332) can0 28C#0000000000000000
(1614018834.341496) can0 38C#142E000000000000
(1614018834.341661) can0 48C#0000000000000000
(1614018834.342774) can0 4C2#0604000F00000000
(1614018834.343488) can0 540#0008000000001000
(1614018834.344196) can0 440#FFFFFFFC0000FFFA
(1614018834.344375) can0 340#0014001300000000
(1614018834.344569) can0 240#FFE4000600000000
(1614018834.344902) can0 341#0000000000000001
(1614018834.345115) can0 241#0000000002028BA2
(1614018834.345282) can0 540#28140833080D0000
(1614018834.346152) can0 2C0#FFE9001000140011
(1614018834.346355) can0 3C0#0000000000000000
(1614018834.346532) can0 4C0#0000000000000078
(1614018834.346701) can0 4AA#002F009000140011
(1614018834.346920) can0 4AC#08140833080D0000
(1614018834.347183) can0 4BE#0000000000000000
(1614018834.347371) can0 4BF#FFE9001000000000
(1614018834.351067) can0 080#00050201009E0000
(1614018834.351356) can0 28C#0000000000000000
(1614018834.351526) can0 38C#142E000000000000
(1614018834.351692) can0 48C#0000000000000000
(1614018834.352793) can0 4C2#0604000F00000000
(1614018834.353501) can0 540#0008000000001100
(1614018834.354220) can0 440#FFFFFFFD0000FFFA
(1614018834.354387) can0 340#0014001300000000
(1614018834.354606) can0 240#FFE9001000000000
(1614018834.354989) can0 341#0000000000000001
(1614018834.355172) can0 241#0000000002028BA2
(1614018834.355345) can0 540#1DA2071F04D402BE
(1614018834.356144) can0 2C0#FFE9001000140011
(1614018834.356320) can0 3C0#0000000000000000
(1614018834.356544) can0 4C0#0000000000000078
(1614018834.356714) can0 4AA#002F008D00140013
(1614018834.356936) can0 4AC#08140833080D0000
(1614018834.357133) can0 4BE#0000000000000000
(1614018834.357301) can0 4BF#FFE4000600000000
(1614018834.361067) can0 080#00050201009E0000
(1614018834.361335) can0 28C#0000000000000000
(1614018834.361506) can0 38C#142E000000000000
(1614018834.361671) can0 48C#0000000000000000
(1614018834.362863) can0 4C2#0604000F00000000
(1614018834.363568) can0 540#0008000000001200
(1614018834.364288) can0 440#FFFFFFFC0000FFF9
(1614018834.364463) can0 340#0014001300000000
(1614018834.365060) can0 341#0000000000000001
(1614018834.365230) can0 241#0000000002028BA2
(1614018834.365400) can0 240#FFE9001000000000
(1614018834.366162) can0 2C0#FFE4000600140013
(1614018834.366354) can0 3C0#0000000000000000
(1614018834.366521) can0 4C0#0000000000000078
(1614018834.366687) can0 540#28140831080D0000
(1614018834.366854) can0 4AA#0036008D00140013
(1614018834.367052) can0 4AC#08140833080D0000
(1614018834.367251) can0 4BE#0000000000000000
(1614018834.367452) can0 4BF#FFE9001000000000
(1614018834.371075) can0 080#00050201009E0000
(1614018834.371351) can0 28C#0000000000000000
(1614018834.371518) can0 38C#142E000000000000
(1614018834.371698) can0 48C#0000000000000000
(1614018834.372882) can0 4C2#0604000F00000000
(1614018834.373585) can0 540#0008000000001300
(1614018834.374322) can0 440#FFFFFFFC0000FFFA
(1614018834.374503) can0 340#0014001300000000
(1614018834.374671) can0 240#FFE9001000000000
(1614018834.374856) can0 341#0000000000000001
(1614018834.375064) can0 241#0000000002028BA2
(1614018834.375386) can0 540#1DA2071F04D402BD
(1614018834.376133) can0 2C0#FFE9001000140013
(1614018834.376318) can0 3C0#0000000000000000
(1614018834.376551) can0 4C0#0000000000000078
(1614018834.376717) can0 4AA#0036009000140013
(1614018834.376982) can0 4AC#08140831080D0000
(1614018834.377141) can0 4BE#0000000000000000
(1614018834.377317) can0 4BF#FFE9001000000000
(1614018834.381087) can0 080#00050201009E0001
(1614018834.381347) can0 28C#0000000000000000
(1614018834.381515) can0 38C#142E000000000000
(1614018834.381682) can0 48C#0000000000000000
(1614018834.382920) can0 4C2#0604000F00000000
(1614018834.383638) can0 540#0008000000001400
(1614018834.384347) can0 440#FFFFFFFD0000FFFA
(1614018834.384533) can0 340#0014001100000000
(1614018834.384701) can0 240#FFE9001000000000
(1614018834.384866) can0 341#0000000000000001
(1614018834.385070) can0 241#0000000002028BA2
(1614018834.385442) can0 540#28140832080D0000
(1614018834.386135) can0 2C0#FFE9001000140013
(1614018834.386313) can0 3C0#0000000000000000
(1614018834.386549) can0 4C0#0000000000000078
(1614018834.386732) can0 4AA#002F008D00140013
(1614018834.386901) can0 4AC#08140831080D0000
(1614018834.387134) can0 4BE#0000000000000000
(1614018834.387316) can0 4BF#FFE9001000000000
(1614018834.391061) can0 080#00050201009E0000
(1614018834.391335) can0 28C#0000000000000000
(1614018834.391516) can0 38C#142E000000000000
(1614018834.391698) can0 48C#0000000000000000
(1614018834.392984) can0 4C2#0604000F00000000
(1614018834.393662) can0 540#0008000000001500
(1614018834.394395) can0 440#FFFFFFFC0000FFF9
(1614018834.394576) can0 340#0014001300000000
(1614018834.394750) can0 240#FFE9000B00000000
(1614018834.394927) can0 341#0000000000000001
(1614018834.395131) can0 241#0000000002028BA2
(1614018834.395459) can0 540#1DA2071E04D402BE
(1614018834.396143) can0 2C0#FFE9001000140013
(1614018834.396311) can0 3C0#0000000000000000
(1614018834.396548) can0 4C0#0000000000000078
(1614018834.396738) can0 4AA#0036009000140011
(1614018834.396925) can0 4AC#08140832080D0000
(1614018834.397184) can0 4BE#0000000000000000
(1614018834.397377) can0 4BF#FFE9001000000000
(1614018834.401097) can0 080#00050201009E0000
(1614018834.401346) can0 28C#0000000000000000
(1614018834.401518) can0 38C#142E000000000000
(1614018834.401685) can0 48C#0000000000000000
(1614018834.403029) can0 4C2#0604000F00000000
(1614018834.403713) can0 540#0008000000001600
(1614018834.404416) can0 440#FFFFFFFD0000FFFA
(1614018834.404583) can0 340#0014001100000000
(1614018834.404821) can0 240#FFE9000B00000000
(1614018834.405006) can0 341#0000000000000001
(1614018834.405169) can0 241#0000000002028BA2
(1614018834.405497) can0 540#28130832080D0000
(1614018834.406169) can0 2C0#FFE9001000140011
(1614018834.406354) can0 3C0#0000000000000000
(1614018834.406540) can0 4C0#0000000000000078
(1614018834.406730) can0 4AA#0036009000140013
(1614018834.406919) can0 4AC#08140832080D0000
(1614018834.407181) can0 4BE#0000000000000000
(1614018834.407368) can0 4BF#FFE9000B00000000
(1614018834.411084) can0 080#00050201009E0000
(1614018834.411345) can0 28C#0000000000000000
(1614018834.411507) can0 38C#142E000000000000
(1614018834.411668) can0 48C#0000000000000000
(1614018834.413105) can0 4C2#0604000F00000000
(1614018834.413798) can0 540#0008000000001700
(1614018834.414500) can0 440#FFFFFFFD0000FFFA
(1614018834.414668) can0 340#0014001300000000
(1614018834.414885) can0 341#0000000000000001
(1614018834.415066) can0 241#0000000002028BA2
(1614018834.415427) can0 240#FFE9000B00000000
(1614018834.416135) can0 2C0#FFE9000B00140013
(1614018834.416318) can0 3C0#0000000000000000
(1614018834.416558) can0 4C0#0000000000000078
(1614018834.416738) can0 540#1DA2071E04D402BE
(1614018834.416905) can0 4AA#0036009000140011
(1614018834.417042) can0 4AC#08130832080D0000
(1614018834.417227) can0 4BE#0000000000000000
(1614018834.417421) can0 4BF#FFE9000B00000000
(1614018834.421077) can0 080#00050201009E0000
(1614018834.421352) can0 28C#0000000000000000
(1614018834.421521) can0 38C#142E000000000000
(1614018834.421685) can0 48C#0000000000000000
(1614018834.423115) can0 4C2#0604000F00000000
(1614018834.423792) can0 540#0008000000001800
(1614018834.424524) can0 440#FFFFFFFD0000FFFA
(1614018834.424692) can0 340#0014001300000000
(1614018834.424855) can0 240#FFE9001000000000
(1614018834.425042) can0 341#0000000000000001
(1614018834.425226) can0 241#0000000002028BA2
(1614018834.425583) can0 540#28140833080D0000
(1614018834.426124) can0 2C0#FFE9000B00140011
(1614018834.426340) can0 3C0#0000000000000000
(1614018834.426504) can0 4C0#0000000000000078
(1614018834.426717) can0 4AA#0036009000140013
(1614018834.426934) can0 4AC#08130832080D0000
(1614018834.427142) can0 4BE#0000000000000000
(1614018834.427310) can0 4BF#FFE9000B00000000
(1614018834.431085) can0 080#00050201009E0000
(1614018834.431357) can0 28C#0000000000000000
(1614018834.431527) can0 38C#142E000000000000
(1614018834.431701) can0 48C#0000000000000000
(1614018834.433157) can0 4C2#0604000F00000000
(1614018834.433864) can0 540#0008000000001900
(1614018834.434579) can0 440#FFFFFFFD0000FFFA
(1614018834.434762) can0 340#0014001300000000
(1614018834.435125) can0 341#0000000000000001
(1614018834.435326) can0 241#0000000002028BA2
(1614018834.435507) can0 240#FFE9001000000000
(1614018834.436149) can0 2C0#FFE9000B00140013
(1614018834.436320) can0 3C0#0000000000000000
(1614018834.436594) can0 4C0#0000000000000078
(1614018834.436776) can0 4AA#002F008D00140013
(1614018834.436983) can0 540#1DA2071E04D402BD
(1614018834.437099) can0 4AC#08140833080D0000
(1614018834.437302) can0 4BE#0000000000000000
(1614018834.437587) can0 4BF#FFE9001000000000
(1614018834.441068) can0 080#00050201009E0000
(1614018834.441368) can0 28C#0000000000000000
(1614018834.441539) can0 38C#142E000000000000
(1614018834.441703) can0 48C#0000000000000000
(1614018834.443195) can0 4C2#0604000F00000000
(1614018834.443935) can0 540#0008000000001A00
(1614018834.444621) can0 440#FFFFFFFD0000FFFA
(1614018834.444811) can0 340#0014001300000000
(1614018834.445168) can0 341#0000000000000001
(1614018834.445337) can0 241#0000000002028BA2
(1614018834.445502) can0 240#FFE9001000000000
(1614018834.446126) can0 2C0#FFE9001000140013
(1614018834.446344) can0 3C0#0000000000000000
(1614018834.446511) can0 4C0#0000000000000078
(1614018834.446726) can0 4AA#0036009000140013
(1614018834.446892) can0 540#28130833080D0000
(1614018834.447065) can0 4AC#08140833080D0000
(1614018834.447231) can0 4BE#0000000000000000
(1614018834.447397) can0 4BF#FFE9001000000000
(1614018834.451083) can0 080#00050201009E0000
(1614018834.451348) can0 28C#0000000000000000
(1614018834.451546) can0 38C#142E000000000000
(1614018834.451737) can0 48C#0000000000000000
(1614018834.453204) can0 4C2#0604000F00000000
(1614018834.453907) can0 540#0008000000001B00
(1614018834.454645) can0 440#FFFFFFFD0000FFF9
(1614018834.454830) can0 340#0014001300000000
(1614018834.455016) can0 240#FFE9001000000000
(1614018834.455182) can0 341#0000000000000001
(1614018834.455345) can0 241#0000000002028BA2
(1614018834.455702) can0 540#1DA2071E04D402BE
(1614018834.456168) can0 2C0#FFE9001000140013
(1614018834.456335) can0 3C0#0000000000000000
(1614018834.456535) can0 4C0#0000000000000078
(1614018834.456702) can0 4AA#002F009000140013
(1614018834.456917) can0 4AC#08130833080D0000
(1614018834.457174) can0 4BE#0000000000000000
(1614018834.457344) can0 4BF#FFE9001000000000
(1614018834.461091) can0 080#00050201009E0000
(1614018834.461365) can0 28C#0000000000000000
(1614018834.461547) can0 38C#142E000000000000
(1614018834.461737) can0 48C#0000000000000000
(1614018834.463276) can0 4C2#0604000F00000000
(1614018834.463944) can0 540#0008000000001C00
(1614018834.464664) can0 440#FFFFFFFD0000FFFA
(1614018834.464831) can0 341#0000000000000001
(1614018834.465020) can0 340#0014001100000000
(1614018834.465203) can0 241#0000000002028BA2
(1614018834.465788) can0 240#FFE9000B00000000
(1614018834.466145) can0 2C0#FFE9001000140013
(1614018834.466315) can0 3C0#0000000000000000
(1614018834.466540) can0 4C0#0000000000000078
(1614018834.466707) can0 4AA#002F009000140013
(1614018834.466931) can0 540#28140833080D0000
(1614018834.467122) can0 4AC#08130833080D0000
(1614018834.467292) can0 4BE#0000000000000000
(1614018834.467464) can0 4BF#FFE9001000000000
(1614018834.471085) can0 080#00050201009E0000
(1614018834.471350) can0 28C#0000000000000000
(1614018834.471514) can0 38C#142E000000000000
(1614018834.471678) can0 48C#0000000000000000
(1614018834.473276) can0 4C2#0604000F00000000
(1614018834.474008) can0 540#0008000000001D00
(1614018834.474702) can0 440#FFFFFFFD0000FFF9
(1614018834.474869) can0 341#0000000000000001
(1614018834.475056) can0 340#0014001300000000
(1614018834.475221) can0 241#0000000002028BA2
(1614018834.475335) can0 240#FFE9001000000000
(1614018834.476003) can0 540#1DA2071E04D402BD
(1614018834.476185) can0 2C0#FFE9001000140013
(1614018834.476350) can0 3C0#0000000000000000
(1614018834.476515) can0 4C0#0000000000000078
(1614018834.476731) can0 4AA#002F009000140011
(1614018834.476897) can0 4AC#08140833080D0000
(1614018834.477145) can0 4BE#0000000000000000
(1614018834.477321) can0 4BF#FFE9000B00000000
(1614018834.481100) can0 080#00050201009E0001
(1614018834.481360) can0 28C#0000000000000000
(1614018834.481555) can0 38C#142E000000000000
(1614018834.481746) can0 48C#0000000000000000
(1614018834.483312) can0 4C2#0604000F00000000
(1614018834.484039) can0 540#0008000000001E00
(1614018834.484733) can0 440#FFFFFFFD0000FFFA
(1614018834.484897) can0 340#0014001300000000
(1614018834.485088) can0 341#0000000000000001
(1614018834.485256) can0 240#FFE9001000000000
(1614018834.485422) can0 241#0000000002028BA2
(1614018834.485812) can0 540#28140833080D0000
(1614018834.486126) can0 2C0#FFE9000B00140011
(1614018834.486340) can0 3C0#0000000000000000
(1614018834.486503) can0 4C0#0000000000000078
(1614018834.486722) can0 4AA#0036009000140013
(1614018834.486936) can0 4AC#08140833080D0000
(1614018834.487140) can0 4BE#0000000000000000
(1614018834.487307) can0 4BF#FFE9001000000000
(1614018834.491072) can0 080#00050201009E0000
(1614018834.491351) can0 28C#0000000000000000
(1614018834.491545) can0 38C#142E000000000000
(1614018834.491728) can0 48C#0000000000000000
(1614018834.493434) can0 4C2#0604000F00000000
(1614018834.494289) can0 540#0008000000001F00
(1614018834.495041) can0 341#0000000000000001
(1614018834.495223) can0 440#FFFFFFFD0000FFFA
(1614018834.495387) can0 241#0000000002028BA2
(1614018834.495745) can0 340#0014001100000000
(1614018834.496163) can0 2C0#FFE9001000140013
(1614018834.496335) can0 3C0#0000000000000000
(1614018834.496518) can0 4C0#0000000000000078
(1614018834.496774) can0 4AA#0036009000140013
(1614018834.496989) can0 4AC#08140833080D0000
(1614018834.497175) can0 240#FFE9001000000000
(1614018834.497289) can0 4BE#0000000000000000
(1614018834.497459) can0 4BF#FFE9001000000000
(1614018834.498311) can0 540#1DA2071E04D402BD
(1614018834.501096) can0 080#00050201009E0000
(1614018834.501345) can0 28C#0000000000000000
(1614018834.501507) can0 38C#142E000000000000
(1614018834.501673) can0 48C#0000000000000000
(1614018834.503390) can0 4C2#0604000F00000000
(1614018834.504119) can0 540#0008000000002000
(1614018834.504835) can0 440#FFFFFFFC0000FFFA
(1614018834.505033) can0 340#0014001300000000
(1614018834.505214) can0 341#0000000000000001
(1614018834.505396) can0 241#0000000002028BA2
(1614018834.505527) can0 240#FFE9001000000000
(1614018834.505908) can0 540#28140832080D0000
(1614018834.506167) can0 2C0#FFE9001000140013
(1614018834.506354) can0 3C0#0000000000000000
(1614018834.506522) can0 4C0#0000000000000078
(1614018834.506740) can0 4AA#003D008A00140011
(1614018834.506925) can0 4AC#08140833080D0000
(1614018834.507133) can0 4BE#0000000000000000
(1614018834.507303) can0 4BF#FFE9001000000000
(1614018834.511073) can0 080#00050201009E0000
(1614018834.511348) can0 28C#0000000000000000
(1614018834.511531) can0 38C#142E000000000000
(1614018834.511698) can0 48C#0000000000000000
(1614018834.513444) can0 4C2#0604000F00000000
(1614018834.514147) can0 540#0008000000002100
(1614018834.514670) can0 341#0000000000000001
(1614018834.514836) can0 241#0000000002028BA2
(1614018834.515034) can0 440#FFFFFFFD0000FFF9
(1614018834.515195) can0 340#0014001100000000
(1614018834.515906) can0 240#FFE9001000000000
(1614018834.516096) can0 540#1DA2071F04D402BD
(1614018834.516282) can0 2C0#FFE9001000140011
(1614018834.516450) can0 3C0#0000000000000000
(1614018834.516648) can0 4C0#0000000000000078
(1614018834.516813) can0 4AA#0036008D00140013
(1614018834.517011) can0 4AC#08140832080D0000
(1614018834.517201) can0 4BE#0000000000000000
(1614018834.517386) can0 4BF#FFE9001000000000
(1614018834.521123) can0 080#00050201009E0000
(1614018834.521368) can0 28C#0000000000000000
(1614018834.521533) can0 38C#142E000000000000
(1614018834.521725) can0 48C#0000000000000000
(1614018834.523474) can0 4C2#0604000F00000000
(1614018834.524202) can0 540#0008000000002200
(1614018834.524390) can0 341#0000000000000001
(1614018834.524590) can0 241#0000000002028BA2
(1614018834.524908) can0 440#FFFFFFFD0000FFFA
(1614018834.525935) can0 340#0014001100000000
(1614018834.526134) can0 240#FFE9001000000000
(1614018834.526319) can0 2C0#FFE9001000140013
(1614018834.526432) can0 540#28140833080D0000
(1614018834.526595) can0 4C0#0000000000000078
(1614018834.526869) can0 4AA#0036008D00140011
(1614018834.527089) can0 4AC#08140832080D0000
(1614018834.527277) can0 4BE#0000000000000000
(1614018834.527442) can0 4BF#FFE9001000000000
(1614018834.531085) can0 080#00050201009E0000
(1614018834.531336) can0 28C#0000000000000000
(1614018834.531503) can0 38C#142E000000000000
(1614018834.531668) can0 48C#0000000000000000
(1614018834.533518) can0 4C2#0604000F00000000
(1614018834.534218) can0 540#0008000000002300
(1614018834.534691) can0 341#0000000000000001
(1614018834.534856) can0 241#0000000002028BA2
(1614018834.535048) can0 440#FFFFFFFD0000FFFA
(1614018834.536002) can0 340#0014001100000000
(1614018834.536169) can0 2C0#FFE9001000140011
(1614018834.536336) can0 240#FFE9000B00000000
(1614018834.536498) can0 4C0#0000000000000078
(1614018834.536612) can0 3C0#0000000000000000
(1614018834.536778) can0 4AA#002F009000140011
(1614018834.536941) can0 4AC#08140833080D0000
(1614018834.537112) can0 540#1DA2071F04D402BD
(1614018834.537274) can0 4BE#0000000000000000
(1614018834.537436) can0 4BF#FFE9001000000000
(1614018834.541093) can0 080#00050201009E0000
(1614018834.541369) can0 28C#0000000000000000
(1614018834.541537) can0 38C#142E000000000000
(1614018834.541703) can0 48C#0000000000000000
(1614018834.542728) can0 4C2#0604000F00000000
(1614018834.543600) can0 540#0008000000002400
(1614018834.544327) can0 440#FFFFFFFD0000FFFA
(1614018834.544493) can0 341#0000000000000001
(1614018834.544661) can0 241#0000000002028BA2
(1614018834.545070) can0 340#0014001300000000
(1614018834.546085) can0 240#FFE9000B00000000
(1614018834.546272) can0 2C0#FFE9001000140011
(1614018834.546443) can0 540#28140832080D0000
(1614018834.546556) can0 3C0#0000000000000000
(1614018834.546827) can0 4C0#0000000000000078
(1614018834.546964) can0 4AA#0036008D00140011
(1614018834.547133) can0 4AC#08140833080D0000
(1614018834.547413) can0 4BF#FFE9000B00000000
(1614018834.547526) can0 4BE#0000000000000000
(1614018834.551112) can0 080#00050201009E0000
(1614018834.551380) can0 28C#0000000000000000
(1614018834.551589) can0 48C#0000000000000000
(1614018834.551704) can0 38C#142E000000000000
(1614018834.552731) can0 4C2#0604000F00000000
(1614018834.553599) can0 540#0008000000002500
(1614018834.554329) can0 440#FFFFFFFD0000FFFA
(1614018834.554851) can0 341#0000000000000001
(1614018834.555058) can0 241#0000000002028BA2
(1614018834.555257) can0 340#0010001300000000
(1614018834.556119) can0 240#FFE9000B00000000
(1614018834.556287) can0 2C0#FFE9000B00140011
(1614018834.556451) can0 540#1DA2071E04D402BE
(1614018834.556580) can0 3C0#0000000000000000
(1614018834.556851) can0 4C0#0000000000000078
(1614018834.557001) can0 4AA#0036009300140013
(1614018834.557194) can0 4AC#08140832080D0000
(1614018834.557469) can0 4BF#FFE9000B00000000
(1614018834.557590) can0 4BE#0000000000000000
(1614018834.561074) can0 080#00050201009E0000
(1614018834.561351) can0 28C#0000000000000000
(1614018834.561517) can0 38C#142E000000000000
(1614018834.561684) can0 48C#0000000000000000
(1614018834.562770) can0 4C2#0604000F00000000
(1614018834.563637) can0 540#0008000000002600
(1614018834.564364) can0 440#FFFFFFFD0000FFFA
(1614018834.564535) can0 341#0000000000000001
(1614018834.564703) can0 241#0000000002028BA2
(1614018834.565133) can0 340#0014001100000000
(1614018834.566137) can0 240#FFE4000600000000
(1614018834.566303) can0 2C0#FFE9000B00140013
(1614018834.566481) can0 540#28140832080D0000
(1614018834.566594) can0 3C0#0000000000000000
(1614018834.566760) can0 4C0#0000000000000078
(1614018834.567054) can0 4AC#08140832080D0000
(1614018834.567171) can0 4AA#0036009000100013
(1614018834.567337) can0 4BE#0000000000000000
(1614018834.567613) can0 4BF#FFE9000B00000000
(1614018834.571071) can0 080#00050201009E0000
(1614018834.571351) can0 28C#0000000000000000
(1614018834.571518) can0 38C#142E000000000000
(1614018834.571685) can0 48C#0000000000000000
(1614018834.572783) can0 4C2#0604000F00000000
(1614018834.573650) can0 540#0008000000002700
(1614018834.574375) can0 440#FFFFFFFD0000FFFA
(1614018834.575053) can0 341#0000000000000001
(1614018834.575269) can0 340#0014001300000000
(1614018834.575437) can0 241#0000000002028BA2
(1614018834.576048) can0 240#FFE9001000000000
(1614018834.576247) can0 2C0#FFE9000B00100013
(1614018834.576433) can0 3C0#0000000000000000
(1614018834.576561) can0 540#1DA1071F04D402BD
(1614018834.576727) can0 4C0#0000000000000078
(1614018834.576841) can0 4AA#0036008D00140011
(1614018834.577149) can0 4AC#08140832080D0000
(1614018834.577263) can0 4BE#0000000000000000
(1614018834.577422) can0 4BF#FFE4000600000000
(1614018834.581069) can0 080#00050201009E0001
(1614018834.581351) can0 28C#0000000000000000
(1614018834.581516) can0 38C#142E000000000000
(1614018834.581683) can0 48C#0000000000000000
(1614018834.582768) can0 4C2#0604000F00000000
(1614018834.583635) can0 540#0008000000002800
(1614018834.584360) can0 440#FFFFFFFD0000FFFA
(1614018834.584637) can0 341#0000000000000001
(1614018834.584803) can0 241#0000000002028BA2
(1614018834.585127) can0 340#0014001300000000
(1614018834.586123) can0 240#FFE9000B00000000
(1614018834.586294) can0 2C0#FFE4000600140011
(1614018834.586460) can0 540#28140833080D0000
(1614018834.586575) can0 3C0#0000000000000000
(1614018834.586741) can0 4C0#0000000000000078
(1614018834.587034) can0 4AC#08140832080D0000
(1614018834.587170) can0 4AA#003D008D00140013
(1614018834.587337) can0 4BE#0000000000000000
(1614018834.587503) can0 4BF#FFE9001000000000
(1614018834.591099) can0 080#00050201009E0000
(1614018834.591350) can0 28C#0000000000000000
(1614018834.591521) can0 38C#142E000000000000
(1614018834.591693) can0 48C#0000000000000000
(1614018834.592828) can0 4C2#0604000F00000000
(1614018834.593700) can0 540#0008000000002900
(1614018834.594424) can0 440#FFFFFFFD0000FFFA
(1614018834.595137) can0 341#0000000000000001
(1614018834.595303) can0 340#0014001100000000
(1614018834.595476) can0 240#FFE9001000000000
(1614018834.595641) can0 241#0000000002028BA2
(1614018834.596159) can0 2C0#FFE9001000140013
(1614018834.596332) can0 540#1DA2071E04D402BD
(1614018834.596495) can0 3C0#0000000000000000
(1614018834.596660) can0 4C0#0000000000000078
(1614018834.596827) can0 4AA#002F009000140013
(1614018834.597018) can0 4AC#08140833080D0000
(1614018834.597199) can0 4BE#0000000000000000
(1614018834.597358) can0 4BF#FFE9000B00000000
(1614018834.601077) can0 080#00050201009E0000
(1614018834.601349) can0 28C#0000000000000000
(1614018834.601513) can0 38C#142E000000000000
(1614018834.601675) can0 48C#0000000000000000
(1614018834.602874) can0 4C2#0604000F00000000
(1614018834.603740) can0 540#0008000000002A00
(1614018834.604460) can0 440#FFFFFFFD0000FFF9
(1614018834.604800) can0 341#0000000000000001
(1614018834.604992) can0 241#0000000002028BA2
(1614018834.605221) can0 340#0014001300000000
(1614018834.606131) can0 2C0#FFE9000B00140013
(1614018834.606470) can0 240#FFE9001000000000
(1614018834.606683) can0 3C0#0000000000000000
(1614018834.606795) can0 4C0#0000000000000078
(1614018834.607093) can0 4AC#08140833080D0000
(1614018834.607261) can0 4BE#0000000000000000
(1614018834.607425) can0 4BF#FFE9001000000000
(1614018834.611090) can0 080#00050201009E0000
(1614018834.611369) can0 28C#0000000000000000
(1614018834.611552) can0 38C#142E000000000000
(1614018834.611737) can0 48C#0000000000000000
(1614018834.612912) can0 4C2#0604000F00000000
(1614018834.613797) can0 540#0008000000002B00
(1614018834.614520) can0 440#FFFFFFFD0000FFFA
(1614018834.615241) can0 340#0014001300000000
(1614018834.615415) can0 240#FFE9001000000000
(1614018834.615580) can0 341#0000000000000001
(1614018834.615742) can0 241#0000000002028BA2
(1614018834.615903) can0 540#1DA2071E04D402BE
(1614018834.616155) can0 2C0#FFE9001000140011
(1614018834.616323) can0 3C0#0000000000000000
(1614018834.616536) can0 4C0#0000000000000078
(1614018834.616703) can0 4AA#003D008D00140013
(1614018834.616917) can0 4AC#08140833080C0000
(1614018834.617154) can0 4BE#0000000000000000
(1614018834.617318) can0 4BF#FFE9001000000000
(1614018834.621089) can0 080#00050201009E0000
(1614018834.621355) can0 28C#0000000000000000
(1614018834.621519) can0 38C#142E000000000000
(1614018834.621684) can0 48C#0000000000000000
(1614018834.623978) can0 4C2#0604000F00000000
(1614018834.624668) can0 540#0008000000002C00
(1614018834.625393) can0 440#FFFFFFFD0000FFFA
(1614018834.625573) can0 341#0000000000000001
(1614018834.625766) can0 241#0000000002028BA2
(1614018834.625900) can0 340#0014001300000000
(1614018834.626223) can0 2C0#FFE9001000140013
(1614018834.626389) can0 3C0#0000000000000000
(1614018834.626502) can0 240#FFE9001000000000
(1614018834.626667) can0 4C0#0000000000000078
(1614018834.626933) can0 4AA#0036009000140013
(1614018834.627149) can0 4AC#08140833080C0000
(1614018834.627318) can0 4BE#0000000000000000
(1614018834.627483) can0 4BF#FFE9001000000000
(1614018834.631072) can0 080#00050201009E0000
(1614018834.631422) can0 28C#0000000000000000
(1614018834.631589) can0 48C#0000000000000000
(1614018834.631720) can0 38C#142E000000000000
(1614018834.633001) can0 4C2#0604000F00000000
(1614018834.633828) can0 540#0008000000002D00
(1614018834.634552) can0 440#FFFFFFFD0000FFF9
(1614018834.635276) can0 340#0014001100000000
(1614018834.635453) can0 240#FFE9001000000000
(1614018834.635621) can0 341#0000000000000001
(1614018834.635786) can0 241#0000000002028BA2
(1614018834.635974) can0 540#1DA2071E04D402BE
(1614018834.636166) can0 2C0#FFE9001000140013
(1614018834.636339) can0 3C0#0000000000000000
(1614018834.636508) can0 4C0#0000000000000078
(1614018834.636728) can0 4AA#0036009000140013
(1614018834.636986) can0 4AC#08140833080D0000
(1614018834.637178) can0 4BE#0000000000000000
(1614018834.637364) can0 4BF#FFE9001000000000
(1614018834.641099) can0 080#00050201009E0000
(1614018834.641371) can0 28C#0000000000000000
(1614018834.641569) can0 38C#142E000000000000
(1614018834.641738) can0 48C#0000000000000000
(1614018834.643087) can0 4C2#0604000F00000000
(1614018834.643875) can0 540#0008000000002E00
(1614018834.644612) can0 440#FFFFFFFD0000FFFA
(1614018834.645321) can0 340#0014001300000000
(1614018834.645485) can0 240#FFE4000B00000000
(1614018834.645648) can0 341#0000000000000001
(1614018834.645809) can0 540#28140833080D0000
(1614018834.646012) can0 241#0000000002028BA2
(1614018834.646181) can0 2C0#FFE9001000140013
(1614018834.646346) can0 3C0#0000000000000000
(1614018834.646513) can0 4C0#0000000000000078
(1614018834.646734) can0 4AA#002F008D00140011
(1614018834.646897) can0 4AC#08140833080D0000
(1614018834.647142) can0 4BE#0000000000000000
(1614018834.647304) can0 4BF#FFE9001000000000
(1614018834.651098) can0 080#00050201009E0000
(1614018834.651356) can0 28C#0000000000000000
(1614018834.651545) can0 38C#142E000000000000
(1614018834.651729) can0 48C#0000000000000000
(1614018834.653088) can0 4C2#0604000F00000000
(1614018834.653946) can0 540#0008000000002F00
(1614018834.654633) can0 440#FFFFFFFD0000FFFA
(1614018834.654800) can0 341#0000000000000001
(1614018834.655010) can0 241#0000000002028BA2
(1614018834.655357) can0 340#0014001300000000
(1614018834.656175) can0 2C0#FFE9001000140011
(1614018834.656342) can0 3C0#0000000000000000
(1614018834.656514) can0 240#FFE4000B00000000
(1614018834.656676) can0 4C0#0000000000000078
(1614018834.656837) can0 4AA#0036008D00140013
(1614018834.657034) can0 4AC#08140833080D0000
(1614018834.657236) can0 4BE#0000000000000000
(1614018834.657401) can0 4BF#FFE4000B00000000
(1614018834.657650) can0 540#1DA2071E04D402BD
(1614018834.661070) can0 080#00050201009E0000
(1614018834.661350) can0 28C#0000000000000000
(1614018834.661521) can0 38C#142E000000000000
(1614018834.661703) can0 48C#0000000000000000
(1614018834.663140) can0 4C2#0604000F00000000
(1614018834.664019) can0 540#0008000000003000
(1614018834.664254) can0 341#0000000000000001
(1614018834.664438) can0 241#0000000002028BA2
(1614018834.664722) can0 440#FFFFFFFD0000FFF9
(1614018834.665751) can0 340#0014001300000000
(1614018834.666149) can0 2C0#FFE4000B00140013
(1614018834.666317) can0 3C0#0000000000000000
(1614018834.666489) can0 240#FFF2001900000000
(1614018834.666652) can0 4C0#0000000000000078
(1614018834.666816) can0 4AA#0036009000140013
(1614018834.667008) can0 4AC#08140833080D0000
(1614018834.667167) can0 4BE#0000000000000000
(1614018834.667321) can0 4BF#FFE4000B00000000
(1614018834.667871) can0 540#28140833080D0000
(1614018834.671080) can0 080#00050201009E0000
(1614018834.671359) can0 28C#0000000000000000
(1614018834.671524) can0 38C#142E000000000000
(1614018834.671685) can0 48C#0000000000000000
(1614018834.673159) can0 4C2#0604000F00000000
(1614018834.674032) can0 540#0008000000003100
(1614018834.674332) can0 341#0000000000000001
(1614018834.674508) can0 241#0000000002028BA2
(1614018834.674724) can0 440#FFFFFFFC0000FFFA
(1614018834.675729) can0 340#0014001300000000
(1614018834.676133) can0 2C0#FFE4000B00140013
(1614018834.676350) can0 3C0#0000000000000000
(1614018834.676526) can0 240#FFE9000B00000000
(1614018834.676717) can0 4C0#0000000000000078
(1614018834.676881) can0 4AA#002F008D00140013
(1614018834.677065) can0 4AC#08140833080D0000
(1614018834.677250) can0 4BE#0000000000000000
(1614018834.677433) can0 4BF#FFF2001900000000
(1614018834.677872) can0 540#1DA2071F04D402BE
(1614018834.681091) can0 080#00050201009E0001
(1614018834.681356) can0 28C#0000000000000000
(1614018834.681548) can0 38C#142E000000000000
(1614018834.681741) can0 48C#0000000000000000
(1614018834.683179) can0 4C2#0604000F00000000
(1614018834.684083) can0 540#0008000000003200
(1614018834.684422) can0 341#0000000000000001
(1614018834.684602) can0 241#0000000002028BA2
(1614018834.684781) can0 440#FFFFFFFD0000FFFA
(1614018834.685770) can0 340#0014001300000000
(1614018834.686141) can0 2C0#FFF2001900140013
(1614018834.686310) can0 3C0#0000000000000000
(1614018834.686528) can0 4C0#0000000000000078
(1614018834.686693) can0 240#FFE9001500000000
(1614018834.686857) can0 4AA#0036009000140013
(1614018834.687063) can0 4AC#08140833080D0000
(1614018834.687237) can0 4BE#0000000000000000
(1614018834.687404) can0 4BF#FFE9000B00000000
(1614018834.688141) can0 540#28140833080D0000
(1614018834.691078) can0 080#00050201009E0000
(1614018834.691353) can0 28C#0000000000000000
(1614018834.691517) can0 38C#142E000000000000
(1614018834.691708) can0 48C#0000000000000000
(1614018834.693262) can0 4C2#0604000F00000000
(1614018834.694153) can0 540#0008000000003300
(1614018834.694481) can0 341#0000000000000001
(1614018834.694646) can0 241#0000000002028BA2
(1614018834.694832) can0 440#FFFFFFFD0000FFFA
(1614018834.695846) can0 340#0014001300000000
(1614018834.696128) can0 2C0#FFE9000B00140013
(1614018834.696373) can0 3C0#0000000000000000
(1614018834.696538) can0 4C0#0000000000000078
(1614018834.696700) can0 240#FFE9000B00000000
(1614018834.696892) can0 4AA#0036008D00140013
(1614018834.697067) can0 4AC#08140833080D0000
(1614018834.697247) can0 4BE#0000000000000000
(1614018834.697427) can0 4BF#FFE9001500000000
(1614018834.697989) can0 540#1DA2071E04D402BE
(1614018834.701084) can0 080#00050201009E0000
(1614018834.701384) can0 28C#0000000000000000
(1614018834.701551) can0 38C#142E000000000000
(1614018834.701718) can0 48C#0000000000000000
(1614018834.703293) can0 4C2#0604000F00000000
(1614018834.704144) can0 540#0008000000003400
(1614018834.704522) can0 341#0000000000000001
(1614018834.704693) can0 241#0000000002028BA2
(1614018834.704862) can0 440#FFFFFFFD0000FFFA
(1614018834.705891) can0 340#0014001100000000
(1614018834.706158) can0 2C0#FFE9001500140013
(1614018834.706335) can0 3C0#0000000000000000
(1614018834.706505) can0 4C0#0000000000000078
(1614018834.706671) can0 240#FFE9001000000000
(1614018834.706838) can0 4AA#002F009000140013
(1614018834.707059) can0 4AC#08140833080D0000
(1614018834.707247) can0 4BE#0000000000000000
(1614018834.707419) can0 4BF#FFE9000B00000000
(1614018834.708013) can0 540#28140833080D0000
(1614018834.711074) can0 080#00050201009E0000
(1614018834.711371) can0 28C#0000000000000000
(1614018834.711567) can0 38C#142E000000000000
(1614018834.711758) can0 48C#0000000000000000
(1614018834.713302) can0 4C2#0604000F00000000
(1614018834.714185) can0 540#0008000000003500
(1614018834.714590) can0 341#0000000000000001
(1614018834.714757) can0 241#0000000002028BA2
(1614018834.714919) can0 440#FFFFFFFD0000FFFA
(1614018834.715910) can0 340#0014001100000000
(1614018834.716185) can0 2C0#FFE9000B00140013
(1614018834.716384) can0 3C0#0000000000000000
(1614018834.716564) can0 4C0#0000000000000078
(1614018834.716759) can0 240#FFE4000600000000
(1614018834.716941) can0 4AA#0036009000140011
(1614018834.717095) can0 4AC#08140833080D0000
(1614018834.717411) can0 4BE#0000000000000000
(1614018834.717543) can0 4BF#FFE9001000000000
(1614018834.718032) can0 540#1DA4071E04D402BD
(1614018834.721080) can0 080#00050201009E0000
(1614018834.721361) can0 28C#0000000000000000
(1614018834.721529) can0 38C#142E000000000000
(1614018834.721730) can0 48C#0000000000000000
(1614018834.723352) can0 4C2#0604000F00000000
(1614018834.724268) can0 540#0008000000003600
(1614018834.724667) can0 341#0000000000000001
(1614018834.724843) can0 241#0000000002028BA2
(1614018834.725044) can0 440#FFFFFFFD0000FFFA
(1614018834.725977) can0 340#0014001100000000
(1614018834.726144) can0 2C0#FFE9001000140011
(1614018834.726315) can0 3C0#0000000000000000
(1614018834.726543) can0 4C0#0000000000000078
(1614018834.726710) can0 240#FFE9001000000000
(1614018834.726877) can0 4AA#002F009300140011
(1614018834.727091) can0 4AC#08140833080D0000
(1614018834.727258) can0 4BE#0000000000000000
(1614018834.727422) can0 4BF#FFE4000600000000
(1614018834.728082) can0 540#28140832080D0000
(1614018834.731087) can0 080#00050201009E0000
(1614018834.731356) can0 28C#0000000000000000
(1614018834.731522) can0 38C#142E000000000000
(1614018834.731686) can0 48C#0000000000000000
(1614018834.733366) can0 4C2#0604000E00000000
(1614018834.734225) can0 540#0008000000003700
(1614018834.734746) can0 341#0000000000000001
(1614018834.734919) can0 241#0000000002028BA2
(1614018834.735130) can0 440#FFFFFFFD0000FFF9
(1614018834.736031) can0 340#0014001100000000
(1614018834.736216) can0 2C0#FFE4000600140011
(1614018834.736411) can0 3C0#0000000000000000
(1614018834.736587) can0 4C0#0000000000000078
(1614018834.736767) can0 240#FFE9001000000000
(1614018834.736990) can0 4AC#08140832080D0000
(1614018834.737104) can0 4AA#003D008D00140011
(1614018834.737298) can0 4BE#0000000000000000
(1614018834.737492) can0 4BF#FFE9001000000000
(1614018834.738115) can0 540#1DA2071E04D402BE
(1614018834.741092) can0 080#00050201009E0000
(1614018834.741352) can0 28C#0000000000000000
(1614018834.741518) can0 38C#142E000000000000
(1614018834.741685) can0 48C#0000000000000000
(1614018834.743397) can0 4C2#0604000F00000000
(1614018834.744267) can0 540#0008000000003800
(1614018834.744828) can0 341#0000000000000001
(1614018834.745018) can0 440#FFFFFFFD0000FFFA
(1614018834.745186) can0 241#0000000002028BA2
(1614018834.745896) can0 340#0014001100000000
(1614018834.746165) can0 2C0#FFE9001000140011
(1614018834.746337) can0 3C0#0000000000000000
(1614018834.746553) can0 4C0#0000000000000078
(1614018834.746719) can0 4AA#0036009000140011
(1614018834.746890) can0 240#FFE9001000000000
(1614018834.747107) can0 4AC#08140832080D0000
(1614018834.747281) can0 4BE#0000000000000000
(1614018834.747444) can0 4BF#FFE9001000000000
(1614018834.748161) can0 540#28140833080D0000
(1614018834.751072) can0 080#00050201009E0000
(1614018834.751352) can0 28C#0000000000000000
(1614018834.751518) can0 38C#142E000000000000
(1614018834.751682) can0 48C#0000000000000000
(1614018834.753454) can0 4C2#0604000F00000000
(1614018834.754336) can0 540#0008000000003900
(1614018834.754910) can0 341#0000000000000001
(1614018834.755114) can0 440#FFFFFFFD0001FFFA
(1614018834.755291) can0 241#0000000002028BA2
(1614018834.755973) can0 340#0014001300000000
(1614018834.756158) can0 2C0#FFE9001000140011
(1614018834.756324) can0 3C0#0000000000000000
(1614018834.756541) can0 4C0#0000000000000078
(1614018834.756715) can0 4AA#0036008A00140011
(1614018834.756881) can0 240#FFE9001000000000
(1614018834.757074) can0 4AC#08140833080D0000
(1614018834.757271) can0 4BE#0000000000000000
(1614018834.757454) can0 4BF#FFE9001000000000
(1614018834.758185) can0 540#1DA3071E04D402BE
(1614018834.761081) can0 080#00050201009E0000
(1614018834.761353) can0 28C#0000000000000000
(1614018834.761520) can0 38C#142E000000000000
(1614018834.761687) can0 48C#0000000000000000
(1614018834.763492) can0 4C2#0604000F00000000
(1614018834.764368) can0 540#0008000000003A00
(1614018834.765027) can0 341#0000000000000001
(1614018834.765215) can0 440#FFFFFFFD0000FFFA
(1614018834.765387) can0 241#0000000002028BA2
(1614018834.766056) can0 340#0014001300000000
(1614018834.766228) can0 2C0#FFE9001000140011
(1614018834.766411) can0 3C0#0000000000000000
(1614018834.766589) can0 4C0#0000000000000078
(1614018834.766784) can0 4AA#0036008D00140013
(1614018834.767007) can0 240#FFE9001000000000
(1614018834.767172) can0 4AC#08140833080D0000
(1614018834.767289) can0 4BE#0000000000000000
(1614018834.767594) can0 4BF#FFE9001000000000
(1614018834.768253) can0 540#28140832080D0000
(1614018834.771105) can0 080#00050201009E0000
(1614018834.771378) can0 28C#0000000000000000
(1614018834.771566) can0 38C#142E000000000000
(1614018834.771735) can0 48C#0000000000000000
(1614018834.773558) can0 4C2#0604000F00000000
(1614018834.774425) can0 540#0008000000003B00
(1614018834.775030) can0 341#0000000000000001
(1614018834.775196) can0 440#FFFFFFFD0000FFFA
(1614018834.775359) can0 241#0000000002028BA2
(1614018834.776136) can0 340#0014001300000000
(1614018834.776309) can0 3C0#0000000000000000
(1614018834.776424) can0 2C0#FFE9001000140013
(1614018834.776605) can0 4C0#0000000000000078
(1614018834.776785) can0 4AA#0036009000140013
(1614018834.776988) can0 4AC#08140832080D0000
(1614018834.777173) can0 4BE#0000000000000000
(1614018834.777289) can0 240#FFE9001000000000
(1614018834.777455) can0 4BF#FFE9001000000000
(1614018834.778289) can0 540#1DA2071F04D402BD
(1614018834.781091) can0 080#00050201009E0001
(1614018834.781355) can0 28C#0000000000000000
(1614018834.781537) can0 38C#142E000000000000
(1614018834.781722) can0 48C#0000000000000000
(1614018834.783596) can0 4C2#0604000F00000000
(1614018834.784235) can0 341#0000000000000001
(1614018834.784409) can0 241#0000000002028BA2
(1614018834.784574) can0 540#0008000000003C00
(1614018834.785501) can0 440#FFFFFFFD0000FFFA
(1614018834.786135) can0 2C0#FFE9001000140013
(1614018834.786382) can0 340#0014001100000000
(1614018834.786549) can0 3C0#0000000000000000
(1614018834.786663) can0 4C0#0000000000000078
(1614018834.786940) can0 4AA#0036009000140013
(1614018834.787082) can0 4AC#08140832080D0000
(1614018834.787247) can0 4BE#0000000000000000
(1614018834.787371) can0 240#FFE4000B00000000
(1614018834.787644) can0 4BF#FFE9001000000000
(1614018834.788374) can0 540#28130833080C0000
(1614018834.791069) can0 080#00050009009E0000
(1614018834.791326) can0 28C#0000000000000000
(1614018834.791491) can0 38C#142E000000000000
(1614018834.791656) can0 48C#0000000000000000
(1614018834.793625) can0 4C2#0604000F00000000
(1614018834.794249) can0 341#0000000000000001
(1614018834.794415) can0 241#0000000002028BA2
(1614018834.794584) can0 540#0008000000003D00
(1614018834.795536) can0 440#FFFFFFFD0000FFFA
(1614018834.796135) can0 2C0#FFE9001000140013
(1614018834.796305) can0 340#0010001300000000
(1614018834.796472) can0 3C0#0000000000000000
(1614018834.796635) can0 4C0#0000000000000078
(1614018834.796799) can0 4AA#0036008D00140011
(1614018834.796998) can0 4AC#08130833080C0000
(1614018834.797183) can0 4BE#0000000000000000
(1614018834.797380) can0 4BF#FFE4000B00000000
(1614018834.797492) can0 240#FFE9001000000000
(1614018834.798405) can0 540#1DA2071E04D502BE
(1614018834.801092) can0 080#00050009009E0000
(1614018834.801351) can0 28C#0000000000000000
(1614018834.801518) can0 38C#142E000000000000
(1614018834.801714) can0 48C#0000000000000000
(1614018834.802550) can0 4C2#0604000F00000000
(1614018834.803475) can0 540#0008000000003E00
(1614018834.804291) can0 341#0000000000000001
(1614018834.804473) can0 440#FFFFFFFC0000FFFA
(1614018834.804654) can0 241#0000000002028BA2
(1614018834.805306) can0 340#0014001100000000
(1614018834.806144) can0 2C0#FFE4000B00140011
(1614018834.806311) can0 240#FFE9000B00000000
(1614018834.806475) can0 3C0#0000000000000000
(1614018834.806589) can0 540#28140833080D0000
(1614018834.806755) can0 4C0#0000000000000078
(1614018834.806870) can0 4AA#002F008D00100013
(1614018834.807188) can0 4AC#08130833080C0000
(1614018834.807302) can0 4BE#0000000000000000
(1614018834.807472) can0 4BF#FFE9001000000000
(1614018834.811080) can0 080#00050009009E0000
(1614018834.811323) can0 28C#0000000000000000
(1614018834.811486) can0 38C#142E000000000000
(1614018834.811652) can0 48C#0000000000000000
(1614018834.812521) can0 4C2#0604000F00000000
(1614018834.813436) can0 540#0008000000003F00
(1614018834.814346) can0 440#FFFFFFFC0000FFFA
(1614018834.814527) can0 341#0000000000000001
(1614018834.814727) can0 241#0000000002028BA2
(1614018834.815299) can0 340#0014001100000000
(1614018834.816130) can0 2C0#FFE9001000100013
(1614018834.816302) can0 240#FFE9000B00000000
(1614018834.816468) can0 3C0#0000000000000000
(1614018834.816632) can0 4C0#0000000000000078
(1614018834.816797) can0 4AA#0036008D00140011
(1614018834.816984) can0 4AC#08140833080D0000
(1614018834.817153) can0 4BE#0000000000000000
(1614018834.817348) can0 540#1DA2071E04D402BE
(1614018834.817551) can0 4BF#FFE9000B00000000
(1614018834.821100) can0 080#00050009009E0000
(1614018834.821353) can0 28C#0000000000000000
(1614018834.821535) can0 38C#142E000000000000
(1614018834.821709) can0 48C#0000000000000000
(1614018834.822501) can0 4C2#0604000F00000000
(1614018834.823467) can0 540#0008000000004000
(1614018834.824331) can0 440#FFFFFFFD0000FFFA
(1614018834.824513) can0 341#0000000000000001
(1614018834.824694) can0 241#0000000002028BA2
(1614018834.825098) can0 340#0014001300000000
(1614018834.826114) can0 240#FFE9001000000000
(1614018834.826280) can0 2C0#FFE9000B00140011
(1614018834.826444) can0 540#28140832080D0000
(1614018834.826559) can0 3C0#0000000000000000
(1614018834.826830) can0 4C0#0000000000000078
(1614018834.826944) can0 4AA#002F009300140011
(1614018834.827118) can0 4AC#08140833080D0000
(1614018834.827384) can0 4BF#FFE9000B00000000
(1614018834.827497) can0 4BE#0000000000000000
(1614018834.831074) can0 080#00050009009E0000
(1614018834.831337) can0 28C#0000000000000000
(1614018834.831534) can0 38C#142E000000000000
(1614018834.831702) can0 48C#0000000000000000
(1614018834.832535) can0 4C2#0604000F00000000
(1614018834.833454) can0 540#0008000000004100
(1614018834.834373) can0 440#FFFFFFFD0000FFFA
(1614018834.834539) can0 341#0000000000000001
(1614018834.834735) can0 241#0000000002028BA2
(1614018834.835111) can0 340#0014001300000000
(1614018834.836122) can0 240#FFE9001000000000
(1614018834.836302) can0 2C0#FFE9000B00140011
(1614018834.836462) can0 540#1DA3071F04D402BD
(1614018834.836575) can0 3C0#0000000000000000
(1614018834.836833) can0 4C0#0000000000000078
(1614018834.836943) can0 4AA#003D008D00140013
(1614018834.837136) can0 4AC#08140832080D0000
(1614018834.837301) can0 4BE#0000000000000000
(1614018834.837468) can0 4BF#FFE9001000000000
(1614018834.841092) can0 080#00050009009E0000
(1614018834.841340) can0 28C#0000000000000000
(1614018834.841552) can0 38C#142E000000000000
(1614018834.841736) can0 48C#0000000000000000
(1614018834.842614) can0 4C2#0604000F00000000
(1614018834.843540) can0 540#0008000000004200
(1614018834.844426) can0 440#FFFFFFFD0000FFFA
(1614018834.844622) can0 341#0000000000000001
(1614018834.844820) can0 241#0000000002028BA2
(1614018834.845149) can0 340#0014001300000000
(1614018834.846150) can0 2C0#FFE9001000140013
(1614018834.846316) can0 240#FFE9000B00000000
(1614018834.846483) can0 3C0#0000000000000000
(1614018834.846596) can0 540#28140832080D0000
(1614018834.846759) can0 4C0#0000000000000078
(1614018834.846872) can0 4AA#0036008D00140013
(1614018834.847193) can0 4AC#08140832080D0000
(1614018834.847306) can0 4BE#0000000000000000
(1614018834.847473) can0 4BF#FFE9001000000000
(1614018834.851103) can0 080#00050009009E0000
(1614018834.851341) can0 28C#0000000000000000
(1614018834.851531) can0 38C#142E000000000000
(1614018834.851698) can0 48C#0000000000000000
(1614018834.852625) can0 4C2#0604000F00000000
(1614018834.853552) can0 540#0008000000004300
(1614018834.854444) can0 440#FFFFFFFD0000FFFA
(1614018834.854608) can0 341#0000000000000001
(1614018834.854773) can0 241#0000000002028BA2
(1614018834.855168) can0 340#0014001100000000
(1614018834.856128) can0 2C0#FFE9001000140013
(1614018834.856292) can0 240#FFE9000B00000000
(1614018834.856456) can0 3C0#0000000000000000
(1614018834.856621) can0 4C0#0000000000000078
(1614018834.856735) can0 540#1DA2071E04D402BD
(1614018834.857032) can0 4AA#0036008D00140013
(1614018834.857150) can0 4AC#08140832080D0000
(1614018834.857316) can0 4BE#0000000000000000
(1614018834.857587) can0 4BF#FFE9000B00000000
(1614018834.861118) can0 080#00050009009E0000
(1614018834.861338) can0 28C#0000000000000000
(1614018834.861503) can0 38C#142E000000000000
(1614018834.861668) can0 48C#0000000000000000
(1614018834.862631) can0 4C2#0604000F00000000
(1614018834.863574) can0 540#0008000000004400
(1614018834.864469) can0 440#FFFFFFFD0000FFFA
(1614018834.864702) can0 341#0000000000000001
(1614018834.864868) can0 241#0000000002028BA2
(1614018834.865209) can0 340#0014001100000000
(1614018834.866129) can0 2C0#FFE9000B00140013
(1614018834.866292) can0 240#FFE9000B00000000
(1614018834.866459) can0 3C0#0000000000000000
(1614018834.866622) can0 4C0#0000000000000078
(1614018834.866735) can0 540#28140833080D0000
(1614018834.867040) can0 4AA#002F009000140011
(1614018834.867174) can0 4AC#08140832080D0000
(1614018834.867360) can0 4BE#0000000000000000
(1614018834.867495) can0 4BF#FFE9000B00000000
(1614018834.871106) can0 080#00050009009E0000
(1614018834.871356) can0 28C#0000000000000000
(1614018834.871537) can0 38C#142E000000000000
(1614018834.871712) can0 48C#0000000000000000
(1614018834.872677) can0 4C2#0604000F00000000
(1614018834.873621) can0 540#0008000000004500
(1614018834.874519) can0 440#FFFFFFFD0000FFFA
(1614018834.874782) can0 341#0000000000000001
(1614018834.874976) can0 241#0000000002028BA2
(1614018834.875243) can0 340#0014001300000000
(1614018834.876127) can0 2C0#FFE9000B00140011
(1614018834.876297) can0 240#FFE9000B00000000
(1614018834.876469) can0 3C0#0000000000000000
(1614018834.876635) can0 540#1DA3071E04D402BD
(1614018834.876749) can0 4C0#0000000000000078
(1614018834.876914) can0 4AA#002F008D00140011
(1614018834.877055) can0 4AC#08140833080D0000
(1614018834.877345) can0 4BE#0000000000000000
(1614018834.877459) can0 4BF#FFE9000B00000000
(1614018834.881101) can0 080#00050009009E0001
(1614018834.881354) can0 28C#0000000000000000
(1614018834.881529) can0 38C#142E000000000000
(1614018834.881712) can0 48C#0000000000000000
(1614018834.882746) can0 4C2#0604000F00000000
(1614018834.883658) can0 540#0008000000004600
(1614018834.884552) can0 440#FFFFFFFC0000FFF9
(1614018834.884868) can0 341#0000000000000001
(1614018834.885058) can0 241#0000000002028BA2
(1614018834.885294) can0 340#0014001300000000
(1614018834.886145) can0 2C0#FFE9000B00140011
(1614018834.886339) can0 240#FFE9000B00000000
(1614018834.886533) can0 3C0#0000000000000000
(1614018834.886727) can0 540#28140833080D0000
(1614018834.886840) can0 4C0#0000000000000078
(1614018834.887159) can0 4AC#08140833080D0000
(1614018834.887274) can0 4BE#0000000000000000
(1614018834.887438) can0 4BF#FFE9000B00000000
(1614018834.891070) can0 080#00050009009E0000
(1614018834.891326) can0 28C#0000000000000000
(1614018834.891489) can0 38C#142E000000000000
(1614018834.891652) can0 48C#0000000000000000
(1614018834.892786) can0 4C2#0604000F00000000
(1614018834.893722) can0 540#0008000000004700
(1614018834.894621) can0 440#FFFFFFFD0000FFF9
(1614018834.894940) can0 341#0000000000000001
(1614018834.895128) can0 241#0000000002028BA2
(1614018834.895341) can0 340#0014001300000000
(1614018834.896126) can0 2C0#FFE9000B00140013
(1614018834.896343) can0 3C0#0000000000000000
(1614018834.896511) can0 240#FFE9001000000000
(1614018834.896677) can0 4C0#0000000000000078
(1614018834.896791) can0 540#1DA3071E04D402BD
(1614018834.896989) can0 4AA#0036009000140013
(1614018834.897122) can0 4AC#08140833080D0000
(1614018834.897422) can0 4BE#0000000000000000
(1614018834.897536) can0 4BF#FFE9000B00000000
(1614018834.901103) can0 080#00050009009E0000
(1614018834.901326) can0 28C#0000000000000000
(1614018834.901494) can0 38C#142E000000000000
(1614018834.901658) can0 48C#0000000000000000
(1614018834.902835) can0 4C2#0604000F00000000
(1614018834.903743) can0 540#0008000000004800
(1614018834.904671) can0 440#FFFFFFFD0000FFF9
(1614018834.905016) can0 341#0000000000000001
(1614018834.905200) can0 241#0000000002028BA2
(1614018834.905377) can0 340#0014001300000000
(1614018834.906162) can0 2C0#FFE9000B00140013
(1614018834.906355) can0 3C0#0000000000000000
(1614018834.906548) can0 240#FFE4000600000000
(1614018834.906712) can0 4C0#0000000000000078
(1614018834.906843) can0 4AA#002F008D00140013
(1614018834.907053) can0 4AC#08140833080D0000
(1614018834.907238) can0 4BE#0000000000000000
(1614018834.907410) can0 4BF#FFE9001000000000
(1614018834.907575) can0 540#28140833080C0000
(1614018834.911103) can0 080#00050009009E0000
(1614018834.911330) can0 28C#0000000000000000
(1614018834.911493) can0 38C#142E000000000000
(1614018834.911655) can0 48C#0000000000000000
(1614018834.912847) can0 4C2#0604000F00000000
(1614018834.913800) can0 540#0008000000004900
(1614018834.914711) can0 440#FFFFFFFD0000FFF9
(1614018834.915084) can0 341#0000000000000001
(1614018834.915274) can0 241#0000000002028BA2
(1614018834.915459) can0 340#0014001300000000
(1614018834.916153) can0 2C0#FFE9001000140013
(1614018834.916319) can0 3C0#0000000000000000
(1614018834.916483) can0 240#FFE9001000000000
(1614018834.916645) can0 4C0#0000000000000078
(1614018834.916807) can0 4AA#002F009000140013
(1614018834.917004) can0 4AC#08140833080C0000
(1614018834.917199) can0 4BE#0000000000000000
(1614018834.917382) can0 4BF#FFE4000600000000
(1614018834.917606) can0 540#1DA2071E04D402BE
(1614018834.921075) can0 080#00050009009E0000
(1614018834.921326) can0 28C#0000000000000000
(1614018834.921488) can0 38C#142E000000000000
(1614018834.921659) can0 48C#0000000000000000
(1614018834.922858) can0 4C2#0604000F00000000
(1614018834.923802) can0 540#0008000000004A00
(1614018834.924255) can0 341#0000000000000001
(1614018834.924421) can0 241#0000000002028BA2
(1614018834.924693) can0 440#FFFFFFFD0000FFFA
(1614018834.925712) can0 340#0014001100000000
(1614018834.926144) can0 2C0#FFE4000600140013
(1614018834.926308) can0 3C0#0000000000000000
(1614018834.926473) can0 240#FFE9001000000000
(1614018834.926640) can0 4C0#0000000000000078
(1614018834.926802) can0 4AA#002F008D00140013
(1614018834.926988) can0 4AC#08140833080C0000
(1614018834.927153) can0 4BE#0000000000000000
(1614018834.927316) can0 4BF#FFE9001000000000
(1614018834.927624) can0 540#28140833080C0000
(1614018834.931075) can0 080#00050009009E0000
(1614018834.931326) can0 28C#0000000000000000
(1614018834.931491) can0 38C#142E000000000000
(1614018834.931655) can0 48C#0000000000000000
(1614018834.932935) can0 4C2#0604000F00000000
(1614018834.933878) can0 540#0008000000004B00
(1614018834.934279) can0 341#0000000000000001
(1614018834.934445) can0 241#0000000002028BA2
(1614018834.934767) can0 440#FFFFFFFC0000FFF9
(1614018834.935788) can0 340#0018001100000000
(1614018834.936131) can0 2C0#FFE9001000140013
(1614018834.936349) can0 3C0#0000000000000000
(1614018834.936517) can0 240#FFE9001000000000
(1614018834.936682) can0 4C0#0000000000000078
(1614018834.936845) can0 4AA#0036008D00140011
(1614018834.937041) can0 4AC#08140833080C0000
(1614018834.937208) can0 4BE#0000000000000000
(1614018834.937373) can0 4BF#FFE9001000000000
(1614018834.937674) can0 540#1DA2071E04D302BD
(1614018834.941124) can0 080#00050009009E0000
(1614018834.941358) can0 28C#0000000000000000
(1614018834.941527) can0 38C#142E000000000000
(1614018834.941693) can0 48C#0000000000000000
(1614018834.942928) can0 4C2#0604000F00000000
(1614018834.944154) can0 540#0008000000004C00
(1614018834.944322) can0 341#0000000000000001
(1614018834.944488) can0 241#0000000002028BA2
(1614018834.945023) can0 440#FFFFFFFD0000FFF9
(1614018834.946027) can0 340#0014001300000000
(1614018834.946215) can0 2C0#FFE9001000140011
(1614018834.946406) can0 3C0#0000000000000000
(1614018834.946611) can0 4C0#0000000000000078
(1614018834.946795) can0 240#FFE9001000000000
(1614018834.947002) can0 4AC#08140833080C0000
(1614018834.947125) can0 4AA#002F008D00180011
(1614018834.947293) can0 4BE#0000000000000000
(1614018834.947455) can0 4BF#FFE9001000000000
(1614018834.947858) can0 540#28140833080D0000
(1614018834.951080) can0 080#00050009009E0000
(1614018834.951330) can0 28C#0000000000000000
(1614018834.951497) can0 38C#142E000000000000
(1614018834.951660) can0 48C#0000000000000000
(1614018834.953039) can0 4C2#0604000F00000000
(1614018834.953991) can0 540#0008000000004D00
(1614018834.954379) can0 341#0000000000000001
(1614018834.954565) can0 241#0000000002028BA2
(1614018834.954866) can0 440#FFFFFFFD0000FFFA
(1614018834.955874) can0 340#0014001100000000
(1614018834.956154) can0 2C0#FFE9001000180011
(1614018834.956339) can0 3C0#0000000000000000
(1614018834.956583) can0 4C0#0000000000000078
(1614018834.956779) can0 240#FFE9000B00000000
(1614018834.956971) can0 4AA#002F009300140013
(1614018834.957088) can0 4AC#08140833080D0000
(1614018834.957374) can0 4BE#0000000000000000
(1614018834.957487) can0 4BF#FFE9001000000000
(1614018834.957746) can0 540#1DA2071F04D402BE
(1614018834.961090) can0 080#00050009009E0000
(1614018834.961346) can0 28C#0000000000000000
(1614018834.961519) can0 38C#142E000000000000
(1614018834.961685) can0 48C#0000000000000000
(1614018834.963071) can0 4C2#0604000F00000000
(1614018834.964018) can0 540#0008000000004E00
(1614018834.964410) can0 341#0000000000000001
(1614018834.964574) can0 241#0000000002028BA2
(1614018834.964888) can0 440#FFFFFFFD0000FFF9
(1614018834.965925) can0 340#0014001100000000
(1614018834.966194) can0 2C0#FFE9001000140013
(1614018834.966380) can0 3C0#0000000000000000
(1614018834.966577) can0 4C0#0000000000000078
(1614018834.966762) can0 240#FFE4000600000000
(1614018834.966939) can0 4AA#0036008D00140011
(1614018834.967073) can0 4AC#08140833080D0000
(1614018834.967365) can0 4BE#0000000000000000
(1614018834.967479) can0 4BF#FFE9000B00000000
(1614018834.967761) can0 540#28140833080D0000
(1614018834.971089) can0 080#00050009009E0000
(1614018834.971332) can0 28C#0000000000000000
(1614018834.971498) can0 38C#142E000000000000
(1614018834.971663) can0 48C#0000000000000000
(1614018834.973089) can0 4C2#0604000F00000000
(1614018834.974040) can0 540#0008000000004F00
(1614018834.974496) can0 341#0000000000000001
(1614018834.974661) can0 241#0000000002028BA2
(1614018834.974904) can0 440#FFFFFFFD0000FFFA
(1614018834.975923) can0 340#0014001300000000
(1614018834.976168) can0 2C0#FFE9000B00140011
(1614018834.976331) can0 3C0#0000000000000000
(1614018834.976544) can0 4C0#0000000000000078
(1614018834.976704) can0 240#FFE9001000000000
(1614018834.976865) can0 4AA#0036008D00140011
(1614018834.977052) can0 4AC#08140833080D0000
(1614018834.977221) can0 4BE#0000000000000000
(1614018834.977384) can0 4BF#FFE4000600000000
(1614018834.977774) can0 540#1DA2071E04D402BE
(1614018834.981085) can0 080#00050009009E0001
(1614018834.981361) can0 28C#0000000000000000
(1614018834.981555) can0 38C#142E000000000000
(1614018834.981750) can0 48C#0000000000000000
(1614018834.983142) can0 4C2#0604000F00000000
(1614018834.984110) can0 540#0008000000005000
(1614018834.984588) can0 341#0000000000000001
(1614018834.984772) can0 241#0000000002028BA2
(1614018834.985031) can0 440#FFFFFFFD0000FFFA
(1614018834.986029) can0 340#0010001300000000
(1614018834.986208) can0 2C0#FFE4000600140011
(1614018834.986374) can0 3C0#0000000000000000
(1614018834.986540) can0 4C0#0000000000000078
(1614018834.986707) can0 240#FFE9000B00000000
(1614018834.986871) can0 4AA#002F008D00140013
(1614018834.987045) can0 4AC#08140833080D0000
(1614018834.987208) can0 4BE#0000000000000000
(1614018834.987371) can0 4BF#FFE9001000000000
(1614018834.987849) can0 540#28140833080D0000
(1614018834.991131) can0 080#00050009009E0000
(1614018834.991367) can0 28C#0000000000000000
(1614018834.991567) can0 38C#142E000000000000
(1614018834.991761) can0 48C#0000000000000000
(1614018834.993172) can0 4C2#0604000F00000000
(1614018834.994104) can0 540#0008000000005100
(1614018834.994654) can0 341#0000000000000001
(1614018834.994820) can0 241#0000000002028BA2
(1614018834.995009) can0 440#FFFFFFFD0000FFFA
(1614018834.996056) can0 340#0014001100000000
(1614018834.996237) can0 2C0#FFE9001000140013
(1614018834.996418) can0 3C0#0000000000000000
(1614018834.996583) can0 4C0#0000000000000078
(1614018834.996745) can0 240#FFE9001000000000
(1614018834.996908) can0 4AA#0036008D00100013
(1614018834.997119) can0 4AC#08140833080D0000
(1614018834.997287) can0 4BE#0000000000000000
(1614018834.997458) can0 4BF#FFE9000B00000000
(1614018834.997856) can0 540#1DA2071E04D402BD
(1614018835.001098) can0 080#00050009009E0000
(1614018835.001351) can0 28C#0000000000000000
(1614018835.001533) can0 38C#142E000000000000
(1614018835.001696) can0 48C#0000000000000000
(1614018835.003192) can0 4C2#0604000F00000000
(1614018835.004190) can0 540#0008000000005200
(1614018835.004731) can0 341#0000000000000001
(1614018835.004896) can0 241#0000000002028BA2
(1614018835.005128) can0 440#FFFFFFFD0000FFFA
(1614018835.006059) can0 340#0014001100000000
(1614018835.006246) can0 2C0#FFE9000B00100013
(1614018835.006444) can0 3C0#0000000000000000
(1614018835.006628) can0 4C0#0000000000000078
(1614018835.006804) can0 240#FFE9000B00000000
(1614018835.006989) can0 4AC#08140833080D0000
(1614018835.007104) can0 4AA#003D008A00140011
(1614018835.007269) can0 4BE#0000000000000000
(1614018835.007436) can0 4BF#FFE9001000000000
(1614018835.008151) can0 540#28140833080D0000
(1614018835.011098) can0 080#00050009009D0000
(1614018835.011344) can0 28C#0000000000000000
(1614018835.011536) can0 38C#142E000000000000
(1614018835.011724) can0 48C#0000000000000000
(1614018835.013217) can0 4C2#0604000F00000000
(1614018835.014166) can0 540#0008000000005300
(1614018835.014816) can0 341#0000000000000001
(1614018835.015009) can0 241#0000000002028BA2
(1614018835.015194) can0 440#FFFFFFFC0000FFFA
(1614018835.016098) can0 340#0014001100000000
(1614018835.016261) can0 2C0#FFE9001000140011
(1614018835.016427) can0 3C0#0000000000000000
(1614018835.016589) can0 4C0#0000000000000078
(1614018835.016755) can0 4AA#003D008D00140011
(1614018835.016920) can0 240#FFE9000B00000000
(1614018835.017117) can0 4AC#08140833080D0000
(1614018835.017303) can0 4BE#0000000000000000
(1614018835.017470) can0 4BF#FFE9000B00000000
(1614018835.017941) can0 540#1DA2071F04D402BE
(1614018835.021091) can0 080#00050009009D0000
(1614018835.021344) can0 28C#0000000000000000
(1614018835.021511) can0 38C#142E000000000000
(1614018835.021674) can0 48C#0000000000000000
(1614018835.023249) can0 4C2#0604000F00000000
(1614018835.024199) can0 540#0008000000005400
(1614018835.024894) can0 341#0000000000000001
(1614018835.025070) can0 241#0000000002028BA2
(1614018835.025236) can0 440#FFFFFFFD0000FFF9
(1614018835.025989) can0 340#0014001100000000
(1614018835.026156) can0 2C0#FFE9000B00140011
(1614018835.026320) can0 240#FFE9001000000000
(1614018835.026490) can0 3C0#0000000000000000
(1614018835.026664) can0 4C0#0000000000000078
(1614018835.026831) can0 4AA#0036008D00140011
(1614018835.027020) can0 540#28140833080D0000
(1614018835.027141) can0 4AC#08140833080D0000
(1614018835.027429) can0 4BE#0000000000000000
(1614018835.027546) can0 4BF#FFE9000B00000000
(1614018835.031093) can0 080#00050009009D0000
(1614018835.031328) can0 28C#0000000000000000
(1614018835.031510) can0 38C#142E000000000000
(1614018835.031676) can0 48C#0000000000000000
(1614018835.033322) can0 4C2#0604000F00000000
(1614018835.034254) can0 540#0008000000005500
(1614018835.034926) can0 341#0000000000000001
(1614018835.035138) can0 241#0000000002028BA2
(1614018835.035304) can0 440#FFFFFFFD0000FFF9
(1614018835.036166) can0 2C0#FFE9000B00140011
(1614018835.036366) can0 340#0014001100000000
(1614018835.036565) can0 3C0#0000000000000000
(1614018835.036680) can0 4C0#0000000000000078
(1614018835.036877) can0 4AA#0036008D00140011
(1614018835.037199) can0 4BE#0000000000000000
(1614018835.037313) can0 240#FFE9000B00000000
(1614018835.037479) can0 4BF#FFE9001000000000
(1614018835.038072) can0 540#1DA2071E04D402BE
(1614018835.041115) can0 080#00050009009D0000
(1614018835.041364) can0 28C#0000000000000000
(1614018835.041540) can0 38C#142E000000000000
(1614018835.041704) can0 48C#0000000000000000
(1614018835.043352) can0 4C2#0604000F00000000
(1614018835.044289) can0 540#0008000000005600
(1614018835.045035) can0 341#0000000000000001
(1614018835.045236) can0 241#0000000002028BA2
(1614018835.045409) can0 440#FFFFFFFD0000FFF9
(1614018835.046151) can0 2C0#FFE9001000140011
(1614018835.046337) can0 340#0018001100000000
(1614018835.046526) can0 3C0#0000000000000000
(1614018835.046642) can0 4C0#0000000000000078
(1614018835.046824) can0 4AA#002F008D00140011
(1614018835.047035) can0 4AC#08140833080D0000
(1614018835.047216) can0 240#FFE9001000000000
(1614018835.047338) can0 4BE#0000000000000000
(1614018835.047603) can0 4BF#FFE9000B00000000
(1614018835.048141) can0 540#28140833080D0000
(1614018835.051100) can0 080#00050009009D0000
(1614018835.051343) can0 28C#0000000000000000
(1614018835.051508) can0 38C#142E000000000000
(1614018835.051674) can0 48C#0000000000000000
(1614018835.053422) can0 4C2#0604000F00000000
(1614018835.054373) can0 540#0008000000005700
(1614018835.055123) can0 341#0000000000000001
(1614018835.055319) can0 440#FFFFFFFD0000FFF9
(1614018835.055514) can0 241#0000000002028BA2
(1614018835.056132) can0 2C0#FFE9000B00140011
(1614018835.056329) can0 340#0014001300000000
(1614018835.056521) can0 3C0#0000000000000000
(1614018835.056705) can0 4C0#0000000000000078
(1614018835.056887) can0 4AA#0036008D00180011
(1614018835.057122) can0 4AC#08140833080D0000
(1614018835.057290) can0 4BE#0000000000000000
(1614018835.057566) can0 4BF#FFE9001000000000
(1614018835.058175) can0 540#1DA2071E04D402BE
(1614018835.061091) can0 080#00050009009D0000
(1614018835.061333) can0 28C#0000000000000000
(1614018835.061495) can0 38C#142E000000000000
(1614018835.061656) can0 48C#0000000000000000
(1614018835.062528) can0 4C2#0604000F00000000
(1614018835.063226) can0 540#0008000000005800
(1614018835.064190) can0 440#FFFFFFFD0000FFF9
(1614018835.064354) can0 340#0014001100000000
(1614018835.064764) can0 341#0000000000000001
(1614018835.064928) can0 241#0000000002028BA2
(1614018835.065269) can0 240#FFE4000600000000
(1614018835.066129) can0 2C0#FFE9001000180011
(1614018835.066295) can0 540#28140833080D0000
(1614018835.066474) can0 3C0#0000000000000000
(1614018835.066649) can0 4C0#0000000000000078
(1614018835.066821) can0 4AA#002F009000140013
(1614018835.067031) can0 4AC#08140833080D0000
(1614018835.067215) can0 4BE#0000000000000000
(1614018835.067401) can0 4BF#FFE9000700000000
(1614018835.071110) can0 080#00050009009D0000
(1614018835.071348) can0 28C#0000000000000000
(1614018835.071514) can0 38C#142E000000000000
(1614018835.071710) can0 48C#0000000000000000
(1614018835.072726) can0 4C2#0604000F00000000
(1614018835.073421) can0 540#0008000000005900
(1614018835.074388) can0 440#FFFFFFFD0000FFFA
(1614018835.074794) can0 341#0000000000000001
(1614018835.074983) can0 241#0000000002028BA2
(1614018835.075313) can0 340#0010001100000000
(1614018835.076169) can0 2C0#FFE9000700140013
(1614018835.076361) can0 240#FFEE001500000000
(1614018835.076529) can0 3C0#0000000000000000
(1614018835.076692) can0 4C0#0000000000000078
(1614018835.076861) can0 4AA#0036008D00140011
(1614018835.077048) can0 4AC#08140833080D0000
(1614018835.077211) can0 4BE#0000000000000000
(1614018835.077375) can0 540#1DA2071E04D402BD
(1614018835.077538) can0 4BF#FFE4000600000000
(1614018835.081087) can0 080#00050009009D0001
(1614018835.081331) can0 28C#0000000000000000
(1614018835.081497) can0 38C#142E000000000000
(1614018835.081661) can0 48C#0000000000000000
(1614018835.082514) can0 4C2#0604000F00000000
(1614018835.083242) can0 540#0008000000005A00
(1614018835.083424) can0 440#FFFFFFFE0000FFFA
(1614018835.084381) can0 340#0014001100000000
(1614018835.084852) can0 341#0000000000000001
(1614018835.085069) can0 241#0000000002028BA2
(1614018835.085253) can0 240#FFE9000B00000000
(1614018835.086147) can0 2C0#FFE4000600140011
(1614018835.086330) can0 540#2814083308110000
(1614018835.086506) can0 3C0#0000000000000000
(1614018835.086669) can0 4C0#0000000000000078
(1614018835.086838) can0 4AA#0036008D00100011
(1614018835.087040) can0 4AC#08140833080D0000
(1614018835.087213) can0 4BE#0000000000000000
(1614018835.087381) can0 4BF#FFEE001500000000
(1614018835.091099) can0 080#00050009009D0000
(1614018835.091348) can0 28C#0000000000000000
(1614018835.091533) can0 38C#142E000000000000
(1614018835.091731) can0 48C#0000000000000000
(1614018835.092557) can0 4C2#0604000F00000000
(1614018835.093275) can0 540#0008000000005B00
(1614018835.093458) can0 440#FFFFFFFD0000FFF9
(1614018835.094390) can0 340#0014001100000000
(1614018835.094988) can0 341#0000000000000001
(1614018835.095157) can0 241#0000000002028BA2
(1614018835.095357) can0 240#FFE4000600000000
(1614018835.096177) can0 2C0#FFEE001500100011
(1614018835.096370) can0 540#1DA2071E04D502BD
(1614018835.096562) can0 3C0#0000000000000000
(1614018835.096733) can0 4C0#0000000000000078
(1614018835.096916) can0 4AA#0036008D00140011
(1614018835.097136) can0 4AC#0814083308110000
(1614018835.097304) can0 4BE#0000000000000000
(1614018835.097481) can0 4BF#FFE9000B00000000
(1614018835.101089) can0 080#00050009009D0000
(1614018835.101333) can0 28C#0000000000000000
(1614018835.101496) can0 38C#142E000000000000
(1614018835.101658) can0 48C#0000000000000000
(1614018835.102579) can0 4C2#0604000F00000000
(1614018835.103280) can0 540#0008000000005C00
(1614018835.103443) can0 440#FFFFFFFD0000FFFA
(1614018835.104415) can0 340#0014001100000000
(1614018835.104981) can0 341#0000000000000001
(1614018835.105161) can0 241#0000000002028BA2
(1614018835.105326) can0 240#FFE9001000000000
(1614018835.106127) can0 2C0#FFE9000B00140011
(1614018835.106346) can0 540#28140834080D0000
(1614018835.106522) can0 3C0#0000000000000000
(1614018835.106849) can0 4C0#0000000000000078
(1614018835.107082) can0 4AC#0814083308110000
(1614018835.107195) can0 4AA#0036008D00140011
(1614018835.107466) can0 4BE#0000000000000000
(1614018835.107580) can0 4BF#FFE4000600000000
(1614018835.111103) can0 080#00050009009D0000
(1614018835.111333) can0 28C#0000000000000000
(1614018835.111498) can0 38C#142E000000000000
(1614018835.111661) can0 48C#0000000000000000
(1614018835.112599) can0 4C2#0604000F00000000
(1614018835.113302) can0 540#0008000000005D00
(1614018835.113466) can0 440#FFFFFFFD0000FFFA
(1614018835.114443) can0 340#0014001300000000
(1614018835.115082) can0 341#0000000000000001
(1614018835.115255) can0 241#0000000002028BA2
(1614018835.115423) can0 240#FFE9001000000000
(1614018835.116139) can0 2C0#FFE4000600140011
(1614018835.116323) can0 3C0#0000000000000000
(1614018835.116489) can0 540#1DA2071F04D402BE
(1614018835.116652) can0 4C0#0000000000000078
(1614018835.116817) can0 4AA#0036009000140011
(1614018835.117017) can0 4AC#08140834080D0000
(1614018835.117208) can0 4BE#0000000000000000
(1614018835.117411) can0 4BF#FFE9001000000000
(1614018835.121108) can0 080#00050009009D0000
(1614018835.121338) can0 28C#0000000000000000
(1614018835.121504) can0 38C#142E000000000000
(1614018835.121668) can0 48C#0000000000000000
(1614018835.122649) can0 4C2#0604000F00000000
(1614018835.123364) can0 540#0008000000005E00
(1614018835.123531) can0 440#FFFFFFFD0000FFFA
(1614018835.124521) can0 340#0014001300000000
(1614018835.125139) can0 341#0000000000000001
(1614018835.125305) can0 241#0000000002028BA2
(1614018835.125484) can0 240#FFE9000B00000000
(1614018835.126146) can0 2C0#FFE9001000140011
(1614018835.126326) can0 3C0#0000000000000000
(1614018835.126518) can0 540#28140833080D0000
(1614018835.126704) can0 4C0#0000000000000078
(1614018835.126879) can0 4AA#003D008D00140013
(1614018835.127093) can0 4AC#08140834080D0000
(1614018835.127274) can0 4BE#0000000000000000
(1614018835.127485) can0 4BF#FFE9001000000000
(1614018835.131125) can0 080#00050009009D0000
(1614018835.131343) can0 28C#0000000000000000
(1614018835.131509) can0 38C#142E000000000000
(1614018835.131674) can0 48C#0000000000000000
(1614018835.132708) can0 4C2#0604000F00000000
(1614018835.133391) can0 540#0008000000005F00
(1614018835.133574) can0 440#FFFFFFFD0000FFFA
(1614018835.134554) can0 340#0014001300000000
(1614018835.135212) can0 341#0000000000000001
(1614018835.135395) can0 241#0000000002028BA2
(1614018835.135579) can0 240#FFE9001000000000
(1614018835.136160) can0 2C0#FFE9001000140013
(1614018835.136361) can0 3C0#0000000000000000
(1614018835.136543) can0 4C0#0000000000000078
(1614018835.136744) can0 540#1DA2071E04D402BE
(1614018835.136920) can0 4AA#002F008D00140013
(1614018835.137130) can0 4AC#08140833080D0000
(1614018835.137298) can0 4BE#0000000000000000
(1614018835.137463) can0 4BF#FFE9000B00000000
(1614018835.141099) can0 080#00050009009D0000
(1614018835.141346) can0 28C#0000000000000000
(1614018835.141510) can0 38C#142E000000000000
(1614018835.141673) can0 48C#0000000000000000
(1614018835.142728) can0 4C2#0604000F00000000
(1614018835.143444) can0 540#0008000000006000
(1614018835.143616) can0 440#FFFFFFFD0000FFFA
(1614018835.144571) can0 340#0014001100000000
(1614018835.145246) can0 341#0000000000000001
(1614018835.145409) can0 241#0000000002028BA2
(1614018835.145572) can0 240#FFE9000B00000000
(1614018835.146134) can0 2C0#FFE9000B00140013
(1614018835.146350) can0 3C0#0000000000000000
(1614018835.146514) can0 540#28140833080D0000
(1614018835.146676) can0 4C0#0000000000000078
(1614018835.146839) can0 4AA#003D008D00140013
(1614018835.147024) can0 4AC#08140833080D0000
(1614018835.147207) can0 4BE#0000000000000000
(1614018835.147376) can0 4BF#FFE9001000000000
(1614018835.151073) can0 080#00050009009D0000
(1614018835.151333) can0 28C#0000000000000000
(1614018835.151497) can0 38C#142E000000000000
(1614018835.151662) can0 48C#0000000000000000
(1614018835.152800) can0 4C2#0604000F00000000
(1614018835.153501) can0 540#0008000000006100
(1614018835.153666) can0 440#FFFEFFFD0000FFFA
(1614018835.154644) can0 340#0014001300000000
(1614018835.155329) can0 341#0000000000000001
(1614018835.155491) can0 241#0000000002028BA2
(1614018835.155655) can0 240#FFEE001000000000
(1614018835.156134) can0 2C0#FFE9001000140013
(1614018835.156351) can0 3C0#0000000000000000
(1614018835.156515) can0 4C0#0000000000000078
(1614018835.156677) can0 540#1DA2071F04D402BE
(1614018835.156839) can0 4AA#0036008D00140011
(1614018835.157057) can0 4AC#08140833080D0000
(1614018835.157232) can0 4BE#0000000000000000
(1614018835.157396) can0 4BF#FFE9000B00000000
(1614018835.161131) can0 080#00050009009D0000
(1614018835.161382) can0 28C#0000000000000000
(1614018835.161572) can0 38C#142E000000000000
(1614018835.161755) can0 48C#0000000000000000
(1614018835.162850) can0 4C2#0604000F00000000
(1614018835.163548) can0 540#0008000000006200
(1614018835.163714) can0 440#FFFFFFFD0000FFF9
(1614018835.164681) can0 340#0014001300000000
(1614018835.165438) can0 341#0000000000000001
(1614018835.165622) can0 241#0000000002028BA2
(1614018835.165805) can0 240#FFE9000B00000000
(1614018835.166154) can0 2C0#FFE9000B00140011
(1614018835.166320) can0 3C0#0000000000000000
(1614018835.166535) can0 4C0#0000000000000078
(1614018835.166700) can0 540#28140833080D0000
(1614018835.166865) can0 4AA#0036009000140013
(1614018835.167070) can0 4AC#08140833080D0000
(1614018835.167275) can0 4BE#0000000000000000
(1614018835.167490) can0 4BF#FFEE001000000000
(1614018835.171101) can0 080#00050009009D0000
(1614018835.171350) can0 28C#0000000000000000
(1614018835.171523) can0 38C#142E000000000000
(1614018835.171707) can0 48C#0000000000000000
(1614018835.172886) can0 4C2#0604000F00000000
(1614018835.173344) can0 341#0000000000000001
(1614018835.173510) can0 241#0000000002028BA2
(1614018835.173681) can0 540#0008000000006300
(1614018835.174863) can0 440#FFFFFFFD0000FFFA
(1614018835.175734) can0 340#0014001300000000
(1614018835.176136) can0 2C0#FFEE001000140013
(1614018835.176352) can0 3C0#0000000000000000
(1614018835.176516) can0 240#FFE9001000000000
(1614018835.176678) can0 4C0#0000000000000078
(1614018835.176839) can0 4AA#0036008D00140013
(1614018835.177048) can0 4AC#08140833080D0000
(1614018835.177237) can0 4BE#0000000000000000
(1614018835.177406) can0 4BF#FFE9000B00000000
(1614018835.177641) can0 540#1DA2071E04D402BD
(1614018835.181115) can0 080#00050009009D0001
(1614018835.181365) can0 28C#0000000000000000
(1614018835.181531) can0 38C#142E000000000000
(1614018835.181695) can0 48C#0000000000000000
(1614018835.182575) can0 1BD#AC00FF673F930FE2
(1614018835.182935) can0 4C2#0604000F00000000
(1614018835.183439) can0 341#0000000000000001
(1614018835.183606) can0 241#0000000002028BA2
(1614018835.183773) can0 540#0008000000006400
(1614018835.184896) can0 440#FFFFFFFD0000FFFA
(1614018835.185782) can0 340#0014001100000000
(1614018835.186151) can0 2C0#FFE9000B00140013
(1614018835.186355) can0 3C0#0000000000000000
(1614018835.186553) can0 240#FFE9000B00000000
(1614018835.186737) can0 4C0#0000000000000078
(1614018835.186925) can0 4AA#0028009000140013
(1614018835.187119) can0 4AC#08140833080D0000
(1614018835.187286) can0 4BE#0000000000000000
(1614018835.187465) can0 4BF#FFE9001000000000
(1614018835.187700) can0 540#28140833080D0000
(1614018835.191119) can0 080#00050009009D0000
(1614018835.191338) can0 28C#0000000000000000
(1614018835.191528) can0 38C#142E000000000000
(1614018835.191691) can0 48C#0000000000000000
(1614018835.192596) can0 1BD#AD000B83111F0000
(1614018835.192938) can0 4C2#0604000F00000000
(1614018835.193483) can0 341#0000000000000001
(1614018835.193648) can0 540#0008000000006500
(1614018835.193814) can0 241#0000000002025E7C
(1614018835.194791) can0 440#FFFFFFFD0000FFFA
(1614018835.195856) can0 340#0014001100000000
(1614018835.196143) can0 2C0#FFE9001000140013
(1614018835.196362) can0 3C0#0000000000000000
(1614018835.196534) can0 4C0#0000000000000078
(1614018835.196696) can0 240#FFE9001000000000
(1614018835.196862) can0 4AA#0028008D00140011
(1614018835.197075) can0 4AC#08140833080D0000
(1614018835.197244) can0 4BE#0000000000000000
(1614018835.197408) can0 4BF#FFE9000B00000000
(1614018835.197733) can0 540#1DA2071E04D402BE
(1614018835.201080) can0 080#00050009009D0000
(1614018835.201338) can0 28C#0000000000000000
(1614018835.201507) can0 38C#142E000000000000
(1614018835.201673) can0 48C#0000000000000000
(1614018835.202539) can0 341#0000000000000001
(1614018835.202824) can0 241#0000000002025E7C
(1614018835.203028) can0 4C2#0604000F00000000
(1614018835.203732) can0 443#5E7C2BD801360F01
(1614018835.204023) can0 540#0008000000006600
(1614018835.204929) can0 440#FFFFFFFD0000FFFA
(1614018835.205819) can0 340#0014001100000000
(1614018835.206153) can0 2C0#FFE9000B00140011
(1614018835.206322) can0 3C0#0000000000000000
(1614018835.206544) can0 4C0#0000000000000078
(1614018835.206710) can0 240#FFE9001000000000
(1614018835.206875) can0 4AA#0028008A00140011
(1614018835.207079) can0 4AC#08140833080D0000
(1614018835.207289) can0 4BE#0000000000000000
(1614018835.207474) can0 4BF#FFE9001000000000
(1614018835.207767) can0 540#28140833080D0000
(1614018835.211093) can0 080#00050009009D0000
(1614018835.211367) can0 28C#0000000000000000
(1614018835.211530) can0 38C#142E000000000000
(1614018835.211692) can0 48C#0000000000000000
(1614018835.213006) can0 4C2#0604000F00000000
(1614018835.213697) can0 540#0008000000006700
(1614018835.213879) can0 440#FFFFFFFD0000FFFA
(1614018835.214389) can0 341#0000000000000001
(1614018835.214573) can0 241#0000000002025E7C
(1614018835.214869) can0 340#0014001100000000
(1614018835.216061) can0 240#FFE9000B00000000
(1614018835.216234) can0 2C0#FFE9001000140011
(1614018835.216400) can0 3C0#0000000000000000
(1614018835.216562) can0 4C0#0000000000000078
(1614018835.216725) can0 540#1DA2071E04D402BD
(1614018835.216889) can0 4AA#0028009000140011
(1614018835.217096) can0 4AC#08140833080D0000
(1614018835.217263) can0 4BE#0000000000000000
(1614018835.217428) can0 4BF#FFE9001000000000
(1614018835.221131) can0 080#00050009009D0000
(1614018835.221381) can0 28C#0000000000000000
(1614018835.221566) can0 38C#142E000000000000
(1614018835.221748) can0 48C#0000000000000000
(1614018835.223105) can0 4C2#0604000F00000000
(1614018835.223788) can0 540#0008000000006800
(1614018835.223997) can0 440#FFFFFFFD0000FFFA
(1614018835.224421) can0 341#4A275F0000000001
(1614018835.224608) can0 241#0000000002025E7C
(1614018835.224911) can0 340#0010001300000000
(1614018835.226115) can0 240#FFE9001000000000
(1614018835.226280) can0 2C0#FFE9001000140011
(1614018835.226444) can0 3C0#0000000000000000
(1614018835.226610) can0 4C0#0000000000000078
(1614018835.226773) can0 4AA#0028008D00140011
(1614018835.226935) can0 540#28140832080D0000
(1614018835.227127) can0 4AC#08140833080D0000
(1614018835.227294) can0 4BE#0000000000000000
(1614018835.227457) can0 4BF#FFE9000B00000000
(1614018835.231083) can0 080#00050009009D0000
(1614018835.231335) can0 28C#0000000000000000
(1614018835.231518) can0 38C#142E000000000000
(1614018835.231682) can0 48C#0000000000000000
(1614018835.233110) can0 4C2#0604000F00000000
(1614018835.233782) can0 540#0008000000006900
(1614018835.233969) can0 440#FFFFFFFD0000FFF9
(1614018835.234511) can0 341#0E00000000000001
(1614018835.234673) can0 241#0000000002025E7C
(1614018835.234920) can0 340#0014001300000000
(1614018835.236122) can0 240#FFE9001000000000
(1614018835.236291) can0 2C0#FFE9000B00140011
(1614018835.236467) can0 3C0#0000000000000000
(1614018835.236639) can0 4C0#0000000000000078
(1614018835.236801) can0 4AA#0028009000100013
(1614018835.236991) can0 540#1DA1071E04D402BD
(1614018835.237159) can0 4AC#08140832080D0000
(1614018835.237273) can0 4BE#0000000000000000
(1614018835.237435) can0 4BF#FFE9001000000000
(1614018835.241111) can0 080#00050009009D0000
(1614018835.241357) can0 28C#0000000000000000
(1614018835.241525) can0 38C#142E000000000000
(1614018835.241688) can0 48C#0000000000000000
(1614018835.243148) can0 4C2#0604000F00000000
(1614018835.243866) can0 540#0008000000006A00
(1614018835.244067) can0 440#FFFFFFFD0000FFFA
(1614018835.244567) can0 341#2A00000000000001
(1614018835.244732) can0 241#0000000002025E7C
(1614018835.245029) can0 340#0014001100000000
(1614018835.246150) can0 2C0#FFE9001000100013
(1614018835.246321) can0 240#FFE4000600000000
(1614018835.246511) can0 3C0#0000000000000000
(1614018835.246677) can0 4C0#0000000000000078
(1614018835.246843) can0 4AA#0028008D00140013
(1614018835.247038) can0 4AC#08140832080D0000
(1614018835.247153) can0 540#28140831080D0000
(1614018835.247470) can0 4BE#0000000000000000
(1614018835.247594) can0 4BF#FFE9001000000000
(1614018835.251101) can0 080#00050009009D0000
(1614018835.251337) can0 28C#0000000000000000
(1614018835.251501) can0 38C#142E000000000000
(1614018835.251663) can0 48C#0000000000000000
(1614018835.253168) can0 4C2#0604000F00000000
(1614018835.253863) can0 540#0008000000006B00
(1614018835.254067) can0 440#FFFFFFFD0000FFFA
(1614018835.254635) can0 341#1E00000000000001
(1614018835.254814) can0 241#0000000002025E7C
(1614018835.255070) can0 340#0014001300000000
(1614018835.256150) can0 2C0#FFE9001000140013
(1614018835.256336) can0 240#FFE9001000000000
(1614018835.256502) can0 3C0#0000000000000000
(1614018835.256673) can0 4C0#0000000000000078
(1614018835.256837) can0 4AA#0028009000140011
(1614018835.257033) can0 4AC#08140831080D0000
(1614018835.257177) can0 540#1DA2071E04D402BD
(1614018835.257345) can0 4BE#0000000000000000
(1614018835.257466) can0 4BF#FFE4000600000000
(1614018835.261130) can0 080#00050009009D0000
(1614018835.261378) can0 28C#0000000000000000
(1614018835.261560) can0 38C#142E000000000000
(1614018835.261755) can0 48C#0000000000000000
(1614018835.263251) can0 4C2#0604000F00000000
(1614018835.263971) can0 540#0008000000006C00
(1614018835.264142) can0 440#FFFFFFFC0000FFFA
(1614018835.264740) can0 341#2100000000000001
(1614018835.264917) can0 241#0000000002025E7C
(1614018835.265299) can0 340#0014001100000000
(1614018835.266133) can0 2C0#FFE4000600140011
(1614018835.266348) can0 3C0#0000000000000000
(1614018835.266511) can0 240#FFE9001000000000
(1614018835.266677) can0 4C0#0000000000000078
(1614018835.266844) can0 4AA#0028009000140013
(1614018835.267037) can0 4AC#08140831080D0000
(1614018835.267246) can0 4BE#0000000000000000
(1614018835.267423) can0 4BF#FFE9001000000000
(1614018835.267672) can0 540#28140833080D0000
(1614018835.271095) can0 080#00050009009D0000
(1614018835.271339) can0 28C#0000000000000000
(1614018835.271506) can0 38C#142E000000000000
(1614018835.271669) can0 48C#0000000000000000
(1614018835.273239) can0 4C2#0604000F00000000
(1614018835.273939) can0 540#0008000000006D00
(1614018835.274147) can0 440#FFFFFFFD0000FFFA
(1614018835.274779) can0 341#1F00000000000001
(1614018835.274999) can0 241#0000000002025E7C
(1614018835.275166) can0 340#0014001100000000
(1614018835.276165) can0 2C0#FFE9001000140013
(1614018835.276359) can0 240#FFE9001000000000
(1614018835.276540) can0 3C0#0000000000000000
(1614018835.276673) can0 4C0#0000000000000078
(1614018835.276873) can0 4AA#0028008D00140011
(1614018835.277055) can0 4AC#08140833080D0000
(1614018835.277220) can0 4BE#0000000000000000
(1614018835.277412) can0 4BF#FFE9001000000000
(1614018835.277526) can0 540#1DA2071F04D402BE
(1614018835.281113) can0 080#00050009009D0001
(1614018835.281330) can0 28C#0000000000000000
(1614018835.281496) can0 38C#142E000000000000
(1614018835.281663) can0 48C#0000000000000000
(1614018835.283287) can0 4C2#0604000F00000000
(1614018835.283995) can0 540#0008000000006E00
(1614018835.284163) can0 440#FFFFFFFD0000FFF9
(1614018835.284881) can0 341#1F00000000000001
(1614018835.285068) can0 241#0000000002025E7C
(1614018835.285234) can0 340#0014001300000000
(1614018835.286139) can0 2C0#FFE9001000140011
