;$FILEVERSION=1.1
;$STARTTIME=44249.5342037384
;
;   Start time: 2/22/2021 12:49:15.203.0
;   Generated by PCAN-View v4.3.3.610
;
;   Message Number
;   |         Time Offset (ms)
;   |         |        Type
;   |         |        |        ID (hex)
;   |         |        |        |     Data Length
;   |         |        |        |     |   Data Bytes (hex) ...
;   |         |        |        |     |   |
;---+--   ----+----  --+--  ----+---  +  -+ -- -- -- -- -- -- --
     1)      3161.4  Rx     01800A00  0  
     2)      3166.8  Rx     01800A00  0  
     3)      3172.2  Rx     01A00A00  0  
     4)      3177.5  Rx     01A00A00  0  
     5)      3182.9  Rx     00800A00  0  
     6)      3188.2  Rx     00800A00  0  
     7)      3193.6  Rx     00600A00  0  
     8)      3199.0  Rx     00600A00  0  
     9)      3204.4  Rx     00C00A00  0  
    10)      3209.8  Rx     00C00A00  0  
    11)      3215.1  Rx     00A00A00  0  
    12)      3220.5  Rx     00A00A00  0  
    13)      3225.9  Rx     00400A00  0  
    14)      3231.2  Rx     00400A00  0  
    15)      3236.6  Rx     00200A00  0  
    16)      3242.0  Rx     00200A00  0  
    17)      3247.3  Rx     01000A00  0  
    18)      3252.7  Rx     01000A00  0  
    19)      3258.1  Rx     01200A00  0  
    20)      3263.5  Rx     01200A00  0  
    21)      3268.8  Rx     01400A00  0  
    22)      3274.2  Rx     01400A00  0  
    23)      3279.6  Rx     01600A00  0  
    24)      3284.9  Rx     01600A00  0  
    25)      3290.3  Rx     03000A00  0  
    26)      3295.7  Rx     03000A00  0  
    27)      3301.0  Rx     03200A00  0  
    28)      3306.4  Rx     03200A00  0  
    29)      3589.1  Rx         0343  8  00 00 00 02 FF FF FF FF 
    30)      3589.3  Rx         0343  8  00 06 FF FF FF FF FF FF 
    31)      3589.6  Rx         0540  8  30 00 00 02 FF FF FF FF 
    32)      3589.7  Rx         0343  8  00 0C FF FF FF FF FF FF 
    33)      3589.9  Rx         0540  8  30 06 FF FF FF FF FF FF 
    34)      3590.1  Rx         0343  8  00 12 FF FF 00 07 00 02 
    35)      3590.3  Rx         0540  8  30 0C FF FF FF FF FF FF 
    36)      3590.5  Rx         0343  8  00 18 03 E8 00 00 00 14 
    37)      3590.7  Rx         0540  8  30 12 FF FF 00 07 00 02 
    38)      3590.9  Rx         0343  8  00 1E EC 71 FF FF 0D 96 
    39)      3591.0  Rx         0540  8  30 18 03 E8 00 00 00 14 
    40)      3591.3  Rx         0343  8  00 24 00 00 19 00 EC 71 
    41)      3591.5  Rx         0540  8  30 1E EC 71 FF FF 0D 96 
    42)      3591.7  Rx         0343  8  00 2A FF FF 0B 66 2D 00 
    43)      3591.9  Rx         0540  8  30 24 00 00 19 00 EC 71 
    44)      3592.2  Rx         0343  8  00 30 D3 00 FE 7C FF FF 
    45)      3592.2  Rx         0540  8  30 2A FF FF 0B 66 2D 00 
    46)      3592.5  Rx         0343  8  00 36 09 47 F9 C0 06 40 
    47)      3592.7  Rx         0540  8  30 30 D3 00 FE 7C FF FF 
    48)      3592.9  Rx         0343  8  00 3C 00 0A FE 64 FF FF 
    49)      3593.0  Rx         0540  8  30 36 09 47 F9 C0 06 40 
    50)      3593.3  Rx         0343  8  00 42 07 2E F9 C0 06 40 
    51)      3593.5  Rx         0540  8  30 3C 00 0A FE 64 FF FF 
    52)      3593.7  Rx         0343  8  00 48 00 0A 00 00 00 00 
    53)      3593.9  Rx         0540  8  30 42 07 2E F9 C0 06 40 
    54)      3594.2  Rx         0343  8  00 4E 00 00 00 00 00 00 
    55)      3594.3  Rx         0540  8  30 48 00 0A 00 00 00 00 
    56)      3594.5  Rx         0343  8  00 54 00 00 00 00 12 80 
    57)      3594.7  Rx         0540  8  30 4E 00 00 00 00 00 00 
    58)      3594.9  Rx         0343  8  00 5A 00 00 00 00 00 00 
    59)      3595.1  Rx         0540  8  30 54 00 00 00 00 12 80 
    60)      3595.3  Rx         0343  8  00 60 00 00 00 00 F0 7F 
    61)      3595.5  Rx         0540  8  30 5A 00 00 00 00 00 00 
    62)      3595.7  Rx         0343  8  00 66 FF FF 0B 76 00 00 
    63)      3595.9  Rx         0540  8  30 60 00 00 00 00 F0 7F 
    64)      3596.1  Rx         0343  8  00 6C 00 00 0B 0C 00 00 
    65)      3596.2  Rx         0540  8  30 66 FF FF 0B 76 00 00 
    66)      3596.5  Rx         0343  8  00 72 08 5B 00 00 00 00 
    67)      3596.7  Rx         0540  8  30 6C 00 00 0B 0C 00 00 
    68)      3596.9  Rx         0343  8  00 78 00 0A 00 00 00 00 
    69)      3597.1  Rx         0540  8  30 72 08 5B 00 00 00 00 
    70)      3597.4  Rx         0343  8  00 7E 00 00 00 00 F5 60 
    71)      3597.5  Rx         0540  8  30 78 00 0A 00 00 00 00 
    72)      3597.7  Rx         0343  8  00 84 FF FF 0A 72 00 00 
    73)      3597.9  Rx         0540  8  30 7E 00 00 00 00 F5 60 
    74)      3598.1  Rx         0343  8  00 8A 00 00 00 00 00 00 
    75)      3598.3  Rx         0540  8  30 84 FF FF 0A 72 00 00 
    76)      3598.5  Rx         0343  8  00 90 00 00 00 00 00 00 
    77)      3598.7  Rx         0540  8  30 8A 00 00 00 00 00 00 
    78)      3598.9  Rx         0343  8  00 96 00 00 00 00 BE 23 
    79)      3599.1  Rx         0540  8  30 90 00 00 00 00 00 00 
    80)      3599.7  Rx         0540  8  30 96 00 00 00 00 BE 23 
    81)      3608.7  Rx         0080  8  00 01 02 01 00 A0 00 04 
    82)      3609.0  Rx         028C  8  00 00 00 00 00 00 00 00 
    83)      3609.1  Rx         038C  8  14 2E 00 00 00 00 00 00 
    84)      3609.2  Rx         048C  8  00 00 00 00 00 00 00 00 
    85)      3609.3  Rx         0618  8  40 20 01 16 00 00 00 00 
    86)      3610.6  Rx         0210  8  00 00 00 00 00 00 00 00 
    87)      3610.6  Rx         0211  8  00 00 00 00 00 00 00 00 
    88)      3610.7  Rx         0212  8  00 00 00 00 00 00 00 00 
    89)      3610.7  Rx         0213  8  02 FF 00 00 00 00 00 00 
    90)      3610.7  Rx         01BD  8  AC 00 00 00 3F 5C 0F 90 
    91)      3610.7  Rx         04C2  8  00 51 00 2D 00 00 00 00 
    92)      3611.1  Rx         0540  8  00 08 00 00 00 00 00 00 
    93)      3611.7  Rx         0440  8  00 03 00 00 FF FF 00 00 
    94)      3611.9  Rx         0340  8  FF F1 FF C4 00 00 00 01 
    95)      3612.1  Rx         0341  8  00 00 00 00 00 00 00 00 
    96)      3612.3  Rx         0241  8  00 00 00 00 00 1F 8B A2 
    97)      3612.6  Rx         0240  8  FF FC FF E3 00 00 00 00 
    98)      3613.7  Rx         02C0  8  00 00 00 00 00 00 00 00 
    99)      3613.9  Rx         0540  8  29 76 07 2E 07 CE 00 00 
   100)      3614.0  Rx         03C0  8  00 00 00 00 00 00 00 00 
   101)      3614.2  Rx         04C0  8  00 00 00 00 00 00 00 00 
   102)      3614.3  Rx         04AA  8  D5 AE 00 BC 00 00 00 00 
   103)      3614.5  Rx         04AC  8  00 00 00 00 00 00 00 00 
   104)      3614.8  Rx         04BE  8  00 00 00 00 00 00 00 00 
   105)      3614.9  Rx         04BF  8  00 00 00 00 00 00 00 00 
   106)      3618.7  Rx         0080  8  00 01 02 01 00 9B 00 04 
   107)      3619.0  Rx         028C  8  00 00 00 00 00 00 00 00 
   108)      3619.1  Rx         038C  8  14 2E 00 00 00 00 00 00 
   109)      3619.2  Rx         048C  8  00 00 00 00 00 00 00 00 
   110)      3620.6  Rx         0210  8  00 00 00 00 00 00 00 00 
   111)      3620.6  Rx         0211  8  00 00 00 00 00 00 00 00 
   112)      3620.6  Rx         0212  8  00 00 00 00 00 00 00 00 
   113)      3620.6  Rx         0213  8  02 FF 00 00 00 00 00 00 
   114)      3620.6  Rx         01BD  8  AD 00 0B 8D 11 20 00 00 
   115)      3620.7  Rx         04C2  8  00 51 00 2D 00 00 00 00 
   116)      3621.0  Rx         0540  8  00 08 00 00 00 00 01 00 
   117)      3621.7  Rx         0440  8  00 03 00 00 FF FF 00 00 
   118)      3621.9  Rx         0340  8  FF ED FF C1 00 00 00 01 
   119)      3622.2  Rx         0341  8  00 00 00 00 00 00 00 00 
   120)      3622.4  Rx         0241  8  00 00 00 00 00 02 8B A2 
   121)      3622.6  Rx         0240  8  FF FC FF E3 00 00 00 00 
   122)      3623.7  Rx         02C0  8  00 00 00 00 00 00 00 00 
   123)      3623.9  Rx         0540  8  1D 97 06 D1 0B 7B 0A 89 
   124)      3624.0  Rx         03C0  8  00 00 00 00 00 00 00 00 
   125)      3624.1  Rx         04C0  8  00 00 00 00 00 00 00 78 
   126)      3624.3  Rx         04AA  8  D5 AE 00 BF FF F1 FF C4 
   127)      3624.5  Rx         04AC  8  09 76 07 2E 07 CE 00 00 
   128)      3624.7  Rx         04BE  8  00 00 00 00 00 00 00 00 
   129)      3625.0  Rx         04BF  8  FF FC FF E3 00 00 00 00 
   130)      3628.7  Rx         0080  8  00 01 02 01 00 9B 00 04 
   131)      3629.0  Rx         028C  8  00 00 00 00 00 00 00 00 
   132)      3629.1  Rx         038C  8  14 2E 00 00 00 00 00 00 
   133)      3629.2  Rx         048C  8  00 00 00 00 00 00 00 00 
   134)      3630.5  Rx         0210  8  00 00 00 00 00 00 00 00 
   135)      3630.5  Rx         0211  8  00 00 00 00 00 00 00 00 
   136)      3630.5  Rx         0212  8  00 00 00 00 00 00 00 00 
   137)      3630.6  Rx         0213  8  02 FF 00 00 00 00 00 00 
   138)      3630.6  Rx         04C2  8  00 51 00 2D 00 00 00 00 
   139)      3631.1  Rx         0540  8  00 08 00 00 00 00 02 00 
   140)      3631.7  Rx         0440  8  00 03 00 00 FF FF 00 00 
   141)      3631.9  Rx         0340  8  FF ED FF C4 00 00 00 01 
   142)      3632.3  Rx         0341  8  00 00 00 00 00 00 00 00 
   143)      3632.5  Rx         0241  8  13 00 17 12 4F 02 8B A2 
   144)      3632.6  Rx         0240  8  FF FC FF E3 00 00 00 00 
   145)      3633.7  Rx         02C0  8  FF FC FF E3 FF F1 FF C4 
   146)      3633.9  Rx         0540  8  29 76 07 2D 07 CE 00 00 
   147)      3634.0  Rx         03C0  8  00 00 00 00 00 00 00 00 
   148)      3634.2  Rx         04C0  8  00 00 00 00 00 00 00 78 
   149)      3634.4  Rx         04AA  8  D5 B5 00 BF FF ED FF C1 
   150)      3634.6  Rx         04AC  8  09 76 07 2E 07 CE 00 00 
   151)      3634.8  Rx         04BE  8  00 00 00 00 00 00 00 00 
   152)      3635.0  Rx         04BF  8  FF FC FF E3 00 00 00 00 
   153)      3638.7  Rx         0080  8  00 05 02 01 00 9B 00 04 
   154)      3639.0  Rx         028C  8  00 00 00 00 00 00 00 00 
   155)      3639.1  Rx         038C  8  14 2E 00 00 00 00 00 00 
   156)      3639.2  Rx         048C  8  00 00 00 00 00 00 00 00 
   157)      3639.3  Rx         0620  8  40 20 01 16 00 00 00 00 
   158)      3640.6  Rx         0210  8  00 00 00 00 00 00 00 00 
   159)      3640.6  Rx         0211  8  00 00 00 00 00 00 00 00 
   160)      3640.6  Rx         0212  8  00 00 00 00 00 00 00 00 
   161)      3640.6  Rx         0213  8  02 FF 00 00 00 00 00 00 
   162)      3640.7  Rx         04C2  8  00 51 00 2D 00 00 00 00 
   163)      3641.0  Rx         0540  8  00 08 00 00 00 00 03 00 
   164)      3641.7  Rx         0440  8  00 03 00 00 FF FF 00 00 
   165)      3641.9  Rx         0340  8  FF F1 FF C1 00 00 00 01 
   166)      3642.1  Rx         0240  8  FF FC FF E3 00 00 00 00 
   167)      3642.4  Rx         0341  8  00 00 00 00 00 00 00 00 
   168)      3642.5  Rx         0241  8  00 00 00 00 00 02 8B A2 
   169)      3642.8  Rx         0540  8  1D 96 06 D1 0B 7A 0A 89 
   170)      3643.7  Rx         02C0  8  FF FC FF E3 FF ED FF C1 
   171)      3643.9  Rx         03C0  8  00 00 00 00 00 00 00 00 
   172)      3644.2  Rx         04C0  8  00 00 00 00 00 00 00 78 
   173)      3644.3  Rx         04AA  8  D5 AE 00 C2 FF ED FF C4 
   174)      3644.5  Rx         04AC  8  09 76 07 2D 07 CE 00 00 
   175)      3644.8  Rx         04BE  8  00 00 00 00 00 00 00 00 
   176)      3644.9  Rx         04BF  8  FF FC FF E3 00 00 00 00 
   177)      3648.7  Rx         0080  8  00 05 02 01 00 9B 00 04 
   178)      3649.0  Rx         028C  8  00 00 00 00 00 00 00 00 
   179)      3649.1  Rx         038C  8  14 2E 00 00 00 00 00 00 
   180)      3649.2  Rx         048C  8  00 00 00 00 00 00 00 00 
   181)      3650.6  Rx         0210  8  00 00 00 00 00 00 00 00 
   182)      3650.6  Rx         0211  8  00 00 00 00 00 00 00 00 
   183)      3650.6  Rx         0212  8  00 00 00 00 00 00 00 00 
   184)      3650.7  Rx         0213  8  02 FF 00 00 00 00 00 00 
   185)      3650.7  Rx         04C2  8  06 05 04 06 00 00 00 00 
   186)      3651.2  Rx         0540  8  00 08 00 00 00 00 04 00 
   187)      3651.8  Rx         0440  8  00 03 00 00 FF FF 00 00 
   188)      3652.0  Rx         0340  8  FF F1 FF C4 00 00 00 01 
   189)      3652.4  Rx         0341  8  00 00 00 00 00 00 00 00 
   190)      3652.6  Rx         0241  8  08 00 08 07 11 02 8B A2 
   191)      3652.7  Rx         0240  8  00 00 FF EC 00 00 00 00 
   192)      3653.7  Rx         02C0  8  FF FC FF E3 FF ED FF C4 
   193)      3653.9  Rx         03C0  8  00 00 00 00 00 00 00 00 
   194)      3654.1  Rx         0540  8  29 76 07 2D 07 CE 00 00 
   195)      3654.2  Rx         04C0  8  00 00 00 00 00 00 00 78 
   196)      3654.4  Rx         04AA  8  D5 AE 00 BF FF F1 FF C1 
   197)      3654.5  Rx         04AC  8  09 76 07 2D 07 CE 00 00 
   198)      3654.7  Rx         04BE  8  00 00 00 00 00 00 00 00 
   199)      3655.0  Rx         04BF  8  FF FC FF E3 00 00 00 00 
   200)      3658.7  Rx         0080  8  00 05 02 01 00 9B 00 04 
   201)      3659.0  Rx         028C  8  00 00 00 00 00 00 00 00 
   202)      3659.1  Rx         038C  8  14 2E 00 00 00 00 00 00 
   203)      3659.2  Rx         048C  8  00 00 00 00 00 00 00 00 
   204)      3660.6  Rx         0210  8  00 00 00 00 00 00 00 00 
   205)      3660.6  Rx         0211  8  00 00 00 00 00 00 00 00 
   206)      3660.6  Rx         0212  8  00 00 00 00 00 00 00 00 
   207)      3660.6  Rx         0213  8  02 FF 00 00 00 00 00 00 
   208)      3660.7  Rx         04C2  8  06 05 04 06 00 00 00 00 
   209)      3661.1  Rx         0540  8  00 08 00 00 00 00 05 00 
   210)      3661.8  Rx         0440  8  00 03 00 00 FF FF 00 00 
   211)      3662.0  Rx         0340  8  FF F1 FF C4 00 00 00 01 
   212)      3662.2  Rx         0240  8  FF FC FF E3 00 00 00 00 
   213)      3662.5  Rx         0341  8  00 00 00 00 00 00 00 00 
   214)      3662.7  Rx         0241  8  05 00 04 03 00 02 8B A2 
   215)      3662.9  Rx         0540  8  1D 96 06 D0 0B 7B 0A 89 
   216)      3663.7  Rx         02C0  8  FF FC FF E3 FF F1 FF C1 
   217)      3664.0  Rx         03C0  8  00 00 00 00 00 00 00 00 
   218)      3664.1  Rx         04C0  8  00 00 00 00 00 00 00 78 
   219)      3664.3  Rx         04AA  8  D5 AE 00 BF FF F1 FF C4 
   220)      3664.6  Rx         04AC  8  09 76 07 2D 07 CE 00 00 
   221)      3664.7  Rx         04BE  8  00 00 00 00 00 00 00 00 
   222)      3664.9  Rx         04BF  8  00 00 FF EC 00 00 00 00 
   223)      3668.7  Rx         0080  8  00 05 02 01 00 9B 00 04 
   224)      3669.0  Rx         028C  8  00 00 00 00 00 00 00 00 
   225)      3669.1  Rx         038C  8  14 2E 00 00 00 00 00 00 
   226)      3669.2  Rx         048C  8  00 00 00 00 00 00 00 00 
   227)      3669.3  Rx         0624  8  40 20 01 16 00 00 00 00 
   228)      3670.5  Rx         0210  8  00 00 00 00 00 00 00 00 
   229)      3670.5  Rx         0211  8  00 00 00 00 00 00 00 00 
   230)      3670.5  Rx         0212  8  00 00 00 00 00 00 00 00 
   231)      3670.5  Rx         0213  8  02 FF 00 00 00 00 00 00 
   232)      3670.5  Rx         04C2  8  06 05 04 06 00 00 00 00 
   233)      3671.2  Rx         0540  8  00 08 00 00 00 00 06 00 
   234)      3671.9  Rx         0440  8  00 03 00 00 FF FF 00 00 
   235)      3672.0  Rx         0340  8  FF F1 FF C4 00 00 00 01 
   236)      3672.6  Rx         0341  8  00 00 00 00 00 00 00 00 
   237)      3672.7  Rx         0240  8  FF FC FF E3 00 00 00 00 
   238)      3672.9  Rx         0241  8  06 00 06 05 06 02 8B A2 
   239)      3673.1  Rx         0540  8  29 75 07 2E 07 CE 00 00 
   240)      3673.7  Rx         02C0  8  00 00 FF EC FF F1 FF C4 
   241)      3673.9  Rx         03C0  8  00 00 00 00 00 00 00 00 
   242)      3674.2  Rx         04C0  8  00 00 00 00 00 00 00 78 
   243)      3674.3  Rx         04AA  8  D5 AE 00 BF FF F1 FF C4 
   244)      3674.5  Rx         04AC  8  09 76 07 2D 07 CE 00 00 
   245)      3674.8  Rx         04BE  8  00 00 00 00 00 00 00 00 
   246)      3674.9  Rx         04BF  8  FF FC FF E3 00 00 00 00 
   247)      3678.7  Rx         0080  8  00 05 02 01 00 9B 00 04 
   248)      3679.0  Rx         028C  8  00 00 00 00 00 00 00 00 
   249)      3679.1  Rx         038C  8  14 2E 00 00 00 00 00 00 
   250)      3679.2  Rx         048C  8  00 00 00 00 00 00 00 00 
   251)      3680.6  Rx         0210  8  00 00 00 00 00 00 00 00 
   252)      3680.6  Rx         0211  8  00 00 00 00 00 00 00 00 
   253)      3680.6  Rx         0212  8  00 00 00 00 00 00 00 00 
   254)      3680.6  Rx         0213  8  02 FF 00 00 00 00 00 00 
   255)      3680.7  Rx         04C2  8  06 05 04 06 00 00 00 00 
   256)      3681.3  Rx         0540  8  00 08 00 00 00 00 07 00 
   257)      3681.9  Rx         0440  8  00 03 FF FF FF FF 00 00 
   258)      3682.1  Rx         0340  8  FF F1 FF C4 00 00 00 01 
   259)      3682.7  Rx         0341  8  00 00 00 00 00 00 00 00 
   260)      3682.8  Rx         0240  8  00 00 FF E7 00 00 00 00 
   261)      3682.9  Rx         0241  8  06 00 05 04 04 02 8B A2 
   262)      3683.2  Rx         0540  8  1D 96 06 D1 0B 7B 0A 89 
   263)      3683.8  Rx         02C0  8  FF FC FF E3 FF F1 FF C4 
   264)      3683.9  Rx         03C0  8  00 00 00 00 00 00 00 00 
   265)      3684.1  Rx         04C0  8  00 00 00 00 00 00 00 78 
   266)      3684.4  Rx         04AA  8  D5 AE 00 BF FF F1 FF C4 
   267)      3684.5  Rx         04AC  8  09 75 07 2E 07 CE 00 00 
   268)      3684.7  Rx         04BE  8  00 00 00 00 00 00 00 00 
   269)      3684.9  Rx         04BF  8  FF FC FF E3 00 00 00 00 
   270)      3688.7  Rx         0080  8  00 05 02 01 00 9B 00 04 
   271)      3689.0  Rx         028C  8  00 00 00 00 00 00 00 00 
   272)      3689.1  Rx         038C  8  14 2E 00 00 00 00 00 00 
   273)      3689.2  Rx         048C  8  00 00 00 00 00 00 00 00 
   274)      3690.5  Rx         0210  8  00 00 00 00 00 00 00 00 
   275)      3690.5  Rx         0211  8  00 00 00 00 00 00 00 00 
   276)      3690.5  Rx         0212  8  00 00 00 00 00 00 00 00 
   277)      3690.5  Rx         0213  8  02 FF 00 00 00 00 00 00 
   278)      3690.5  Rx         04C2  8  06 05 04 06 00 00 00 00 
   279)      3691.3  Rx         0540  8  00 08 00 00 00 00 08 00 
   280)      3691.9  Rx         0341  8  00 00 00 00 00 00 00 00 
   281)      3692.0  Rx         0440  8  00 03 00 00 FF FF 00 00 
   282)      3692.1  Rx         0241  8  06 00 05 04 05 02 8B A2 
   283)      3692.8  Rx         0340  8  FF F5 FF C4 00 00 00 01 
   284)      3693.2  Rx         0240  8  00 0A FF F6 00 00 00 00 
   285)      3693.7  Rx         02C0  8  FF FC FF E3 FF F1 FF C4 
   286)      3694.0  Rx         03C0  8  00 00 00 00 00 00 00 00 
   287)      3694.1  Rx         0540  8  29 75 07 2D 07 CE 00 00 
   288)      3694.2  Rx         04C0  8  00 00 00 00 00 00 00 78 
   289)      3694.4  Rx         04AA  8  D5 AE 00 C2 FF F1 FF C4 
   290)      3694.6  Rx         04AC  8  09 75 07 2E 07 CE 00 00 
   291)      3694.8  Rx         04BE  8  00 00 00 00 00 00 00 00 
   292)      3695.0  Rx         04BF  8  00 00 FF E7 00 00 00 00 
   293)      3698.7  Rx         0080  8  00 05 02 01 00 9B 00 04 
   294)      3699.0  Rx         028C  8  00 00 00 00 00 00 00 00 
   295)      3699.1  Rx         038C  8  14 2E 00 00 00 00 00 00 
   296)      3699.2  Rx         048C  8  00 00 00 00 00 00 00 00 
   297)      3700.5  Rx         0210  8  00 00 00 00 00 00 00 00 
   298)      3700.5  Rx         0211  8  00 00 00 00 00 00 00 00 
   299)      3700.5  Rx         0212  8  00 00 00 00 00 00 00 00 
   300)      3700.6  Rx         0213  8  02 FF 00 00 00 00 00 00 
   301)      3700.6  Rx         04C2  8  06 05 04 06 00 00 00 00 
   302)      3701.4  Rx         0540  8  00 08 00 00 00 00 09 00 
   303)      3701.9  Rx         0341  8  00 00 00 00 00 00 00 00 
   304)      3702.0  Rx         0440  8  00 03 00 00 FF FF 00 00 
   305)      3702.1  Rx         0241  8  06 00 05 04 05 02 8B A2 
   306)      3702.9  Rx         0340  8  FF F1 FF C4 00 00 00 01 
   307)      3703.2  Rx         0240  8  FF FC FF E3 00 00 00 00 
   308)      3703.7  Rx         02C0  8  00 00 FF E7 FF F1 FF C4 
   309)      3703.9  Rx         03C0  8  00 00 00 00 00 00 00 00 
   310)      3704.1  Rx         04C0  8  00 00 00 00 00 00 00 78 
   311)      3704.3  Rx         0540  8  1D 97 06 D1 0B 79 0A 89 
   312)      3704.4  Rx         04AA  8  D5 B5 00 BC FF F5 FF C4 
   313)      3704.5  Rx         04AC  8  09 75 07 2D 07 CE 00 00 
   314)      3704.7  Rx         04BE  8  00 00 00 00 00 00 00 00 
   315)      3705.0  Rx         04BF  8  00 0A FF F6 00 00 00 00 
   316)      3708.7  Rx         0080  8  00 05 02 01 00 9B 00 05 
   317)      3709.0  Rx         028C  8  00 00 00 00 00 00 00 00 
   318)      3709.1  Rx         038C  8  14 2E 00 00 00 00 00 00 
   319)      3709.2  Rx         048C  8  00 00 00 00 00 00 00 00 
   320)      3710.5  Rx         0210  8  00 00 00 00 00 00 00 00 
   321)      3710.5  Rx         0211  8  00 00 00 00 00 00 00 00 
   322)      3710.5  Rx         0212  8  00 00 00 00 00 00 00 00 
   323)      3710.5  Rx         0213  8  02 FF 00 00 00 00 00 00 
   324)      3710.6  Rx         04C2  8  06 05 04 06 00 00 00 00 
   325)      3711.4  Rx         0540  8  00 08 00 00 00 00 0A 00 
   326)      3711.9  Rx         0341  8  00 00 00 00 00 00 00 00 
   327)      3712.0  Rx         0440  8  00 03 00 00 FF FF 00 00 
   328)      3712.1  Rx         0241  8  06 00 05 04 05 02 8B A2 
   329)      3712.9  Rx         0340  8  FF F1 FF C4 00 00 00 01 
   330)      3713.2  Rx         0240  8  FF FC FF E3 00 00 00 00 
   331)      3713.7  Rx         02C0  8  00 0A FF F6 FF F5 FF C4 
   332)      3714.0  Rx         03C0  8  00 00 00 00 00 00 00 00 
   333)      3714.1  Rx         04C0  8  00 00 00 00 00 00 00 78 
   334)      3714.3  Rx         0540  8  29 76 07 2E 07 CE 00 00 
   335)      3714.4  Rx         04AA  8  D5 AE 00 BF FF F1 FF C4 
   336)      3714.5  Rx         04AC  8  09 75 07 2D 07 CE 00 00 
   337)      3714.7  Rx         04BE  8  00 00 00 00 00 00 00 00 
   338)      3714.9  Rx         04BF  8  FF FC FF E3 00 00 00 00 
   339)      3718.7  Rx         0080  8  00 05 02 01 00 9B 00 04 
   340)      3719.0  Rx         028C  8  00 00 00 00 00 00 00 00 
   341)      3719.1  Rx         038C  8  14 2E 00 00 00 00 00 00 
   342)      3719.2  Rx         048C  8  00 00 00 00 00 00 00 00 
   343)      3720.5  Rx         0210  8  00 00 00 00 00 00 00 00 
   344)      3720.5  Rx         0211  8  00 00 00 00 00 00 00 00 
   345)      3720.5  Rx         0212  8  00 00 00 00 00 00 00 00 
   346)      3720.5  Rx         0213  8  02 FF 00 00 00 00 00 00 
   347)      3720.6  Rx         04C2  8  06 05 04 06 00 00 00 00 
   348)      3721.3  Rx         0540  8  00 08 00 00 00 00 0B 00 
   349)      3722.0  Rx         0341  8  00 00 00 00 00 00 00 00 
   350)      3722.1  Rx         0440  8  00 03 00 00 FF FF 00 00 
   351)      3722.2  Rx         0241  8  06 00 05 04 05 02 8B A2 
   352)      3723.0  Rx         0340  8  FF F1 FF C4 00 00 00 01 
   353)      3723.3  Rx         0240  8  00 00 FF E7 00 00 00 00 
   354)      3723.7  Rx         02C0  8  FF FC FF E3 FF F1 FF C4 
   355)      3723.9  Rx         03C0  8  00 00 00 00 00 00 00 00 
   356)      3724.2  Rx         04C0  8  00 00 00 00 00 00 00 78 
   357)      3724.2  Rx         0540  8  1D 97 06 D1 0B 7A 0A 88 
   358)      3724.4  Rx         04AA  8  D5 AE 00 C2 FF F1 FF C4 
   359)      3724.5  Rx         04AC  8  09 76 07 2E 07 CE 00 00 
   360)      3724.8  Rx         04BE  8  00 00 00 00 00 00 00 00 
   361)      3724.9  Rx         04BF  8  FF FC FF E3 00 00 00 00 
   362)      3728.7  Rx         0080  8  00 05 02 01 00 9C 00 04 
   363)      3729.0  Rx         028C  8  00 00 00 00 00 00 00 00 
   364)      3729.1  Rx         038C  8  14 2E 00 00 00 00 00 00 
   365)      3729.2  Rx         048C  8  00 00 00 00 00 00 00 00 
   366)      3730.5  Rx         0210  8  00 00 00 00 00 00 00 00 
   367)      3730.5  Rx         0211  8  00 00 00 00 00 00 00 00 
   368)      3730.5  Rx         0212  8  00 00 00 00 00 00 00 00 
   369)      3730.5  Rx         0213  8  02 FF 00 00 00 00 00 00 
   370)      3730.9  Rx         04C2  8  06 05 04 06 00 00 00 00 
   371)      3731.5  Rx         0540  8  00 08 00 00 00 00 0C 00 
   372)      3732.1  Rx         0341  8  00 00 00 00 00 00 00 00 
   373)      3732.2  Rx         0241  8  06 00 05 04 05 02 8B A2 
   374)      3732.4  Rx         0440  8  00 03 00 00 00 00 00 00 
   375)      3733.1  Rx         0340  8  FF F1 FF C4 00 00 00 01 
   376)      3733.3  Rx         0240  8  FF FC FF E3 00 00 00 00 
   377)      3733.7  Rx         02C0  8  FF FC FF E3 FF F1 FF C4 
   378)      3733.9  Rx         03C0  8  00 00 00 00 00 00 00 00 
   379)      3734.1  Rx         04C0  8  00 00 00 00 00 00 00 78 
   380)      3734.3  Rx         0540  8  29 75 07 2D 07 CE 00 00 
   381)      3734.4  Rx         04AA  8  D5 AE 00 C2 FF F1 FF C4 
   382)      3734.5  Rx         04AC  8  09 76 07 2E 07 CE 00 00 
   383)      3734.7  Rx         04BE  8  00 00 00 00 00 00 00 00 
   384)      3735.0  Rx         04BF  8  00 00 FF E7 00 00 00 00 
   385)      3738.7  Rx         0080  8  00 05 02 01 00 9C 00 04 
   386)      3739.0  Rx         028C  8  00 00 00 00 00 00 00 00 
   387)      3739.1  Rx         038C  8  14 2E 00 00 00 00 00 00 
   388)      3739.2  Rx         048C  8  00 00 00 00 00 00 00 00 
   389)      3740.5  Rx         0210  8  00 00 00 00 00 00 00 00 
   390)      3740.5  Rx         0211  8  00 00 00 00 00 00 00 00 
   391)      3740.5  Rx         0212  8  00 00 00 00 00 00 00 00 
   392)      3740.5  Rx         0213  8  02 FF 00 00 00 00 00 00 
   393)      3740.7  Rx         04C2  8  06 05 04 06 00 00 00 00 
   394)      3741.4  Rx         0540  8  00 08 00 00 00 00 0D 00 
   395)      3742.1  Rx         0341  8  00 00 00 00 00 00 00 00 
   396)      3742.2  Rx         0440  8  00 03 00 00 FF FF 00 00 
   397)      3742.3  Rx         0241  8  06 00 05 04 05 02 8B A2 
   398)      3742.5  Rx         0340  8  FF F1 FF C4 00 00 00 01 
   399)      3743.4  Rx         0240  8  FF FC FF E3 00 00 00 00 
   400)      3743.7  Rx         02C0  8  00 00 FF E7 FF F1 FF C4 
   401)      3744.0  Rx         03C0  8  00 00 00 00 00 00 00 00 
   402)      3744.1  Rx         04C0  8  00 00 00 00 00 00 00 78 
   403)      3744.3  Rx         0540  8  1D 96 06 D1 0B 7A 0A 89 
   404)      3744.4  Rx         04AA  8  D5 AE 00 C2 FF F1 FF C4 
   405)      3744.6  Rx         04AC  8  09 75 07 2D 07 CE 00 00 
   406)      3744.8  Rx         04BE  8  00 00 00 00 00 00 00 00 
   407)      3745.0  Rx         04BF  8  FF FC FF E3 00 00 00 00 
   408)      3748.7  Rx         0080  8  00 05 02 01 00 9C 00 04 
   409)      3748.9  Rx         028C  8  00 00 00 00 00 00 00 00 
   410)      3749.1  Rx         038C  8  14 2E 00 00 00 00 00 00 
   411)      3749.2  Rx         048C  8  00 00 00 00 00 00 00 00 
   412)      3750.5  Rx         0210  8  00 00 00 00 00 00 00 00 
   413)      3750.5  Rx         0211  8  00 00 00 00 00 00 00 00 
   414)      3750.5  Rx         0212  8  00 00 00 00 00 00 00 00 
   415)      3750.5  Rx         0213  8  02 FF 00 00 00 00 00 00 
   416)      3750.8  Rx         04C2  8  06 05 04 06 00 00 00 00 
   417)      3751.5  Rx         0540  8  00 08 00 00 00 00 0E 00 
   418)      3752.1  Rx         0341  8  00 00 00 00 00 00 00 00 
   419)      3752.3  Rx         0440  8  00 03 00 00 FF FF 00 00 
   420)      3752.4  Rx         0241  8  06 00 05 04 05 02 8B A2 
   421)      3752.5  Rx         0340  8  FF F1 FF C4 00 00 00 01 
   422)      3753.4  Rx         0240  8  FF FC FF E3 00 00 00 00 
   423)      3753.7  Rx         02C0  8  FF FC FF E3 FF F1 FF C4 
   424)      3753.9  Rx         03C0  8  00 00 00 00 00 00 00 00 
   425)      3754.2  Rx         04C0  8  00 00 00 00 00 00 00 78 
   426)      3754.3  Rx         04AA  8  D5 AE 00 BF FF F1 FF C4 
   427)      3754.5  Rx         0540  8  29 76 07 2E 07 CE 00 00 
   428)      3754.6  Rx         04AC  8  09 75 07 2D 07 CE 00 00 
   429)      3754.8  Rx         04BE  8  00 00 00 00 00 00 00 00 
   430)      3754.9  Rx         04BF  8  FF FC FF E3 00 00 00 00 
   431)      3758.7  Rx         0080  8  00 05 02 01 00 9C 00 04 
   432)      3759.0  Rx         028C  8  00 00 00 00 00 00 00 00 
   433)      3759.1  Rx         038C  8  14 2E 00 00 00 00 00 00 
   434)      3759.2  Rx         048C  8  00 00 00 00 00 00 00 00 
   435)      3760.5  Rx         0210  8  00 00 00 00 00 00 00 00 
   436)      3760.5  Rx         0211  8  00 00 00 00 00 00 00 00 
   437)      3760.5  Rx         0212  8  00 00 00 00 00 00 00 00 
   438)      3760.5  Rx         0213  8  02 FF 00 00 00 00 00 00 
   439)      3760.8  Rx         04C2  8  06 05 04 06 00 00 00 00 
   440)      3761.5  Rx         0540  8  00 08 00 00 00 00 0F 00 
   441)      3762.2  Rx         0440  8  00 03 00 00 FF FF 00 00 
   442)      3762.3  Rx         0341  8  00 00 00 00 00 00 00 00 
   443)      3762.4  Rx         0241  8  06 00 05 04 05 02 8B A2 
   444)      3762.6  Rx         0340  8  FF F5 FF C4 00 00 00 01 
   445)      3763.5  Rx         0240  8  00 00 FF EC 00 00 00 00 
   446)      3763.8  Rx         02C0  8  FF FC FF E3 FF F1 FF C4 
   447)      3763.9  Rx         03C0  8  00 00 00 00 00 00 00 00 
   448)      3764.1  Rx         04C0  8  00 00 00 00 00 00 00 78 
   449)      3764.3  Rx         04AA  8  D5 AE 00 C2 FF F1 FF C4 
   450)      3764.4  Rx         0540  8  1D 97 06 D1 0B 7A 0A 89 
   451)      3764.6  Rx         04AC  8  09 76 07 2E 07 CE 00 00 
   452)      3764.7  Rx         04BE  8  00 00 00 00 00 00 00 00 
   453)      3764.9  Rx         04BF  8  FF FC FF E3 00 00 00 00 
   454)      3768.7  Rx         0080  8  00 05 02 01 00 9C 00 04 
   455)      3769.0  Rx         028C  8  00 00 00 00 00 00 00 00 
   456)      3769.1  Rx         038C  8  14 2E 00 00 00 00 00 00 
   457)      3769.2  Rx         048C  8  00 00 00 00 00 00 00 00 
   458)      3770.5  Rx         0210  8  00 00 00 00 00 00 00 00 
   459)      3770.5  Rx         0211  8  00 00 00 00 00 00 00 00 
   460)      3770.5  Rx         0212  8  00 00 00 00 00 00 00 00 
   461)      3770.5  Rx         0213  8  02 FF 00 00 00 00 00 00 
   462)      3770.9  Rx         04C2  8  06 05 04 06 00 00 00 00 
   463)      3771.5  Rx         0540  8  00 08 00 00 00 00 10 00 
   464)      3772.2  Rx         0440  8  00 03 00 00 FF FF 00 00 
   465)      3772.4  Rx         0341  8  00 00 00 00 00 00 00 00 
   466)      3772.5  Rx         0340  8  FF F1 FF C4 00 00 00 01 
   467)      3772.6  Rx         0241  8  06 00 05 04 05 02 8B A2 
   468)      3773.4  Rx         0240  8  00 00 FF E2 00 00 00 00 
   469)      3773.7  Rx         02C0  8  FF FC FF E3 FF F1 FF C4 
   470)      3773.9  Rx         03C0  8  00 00 00 00 00 00 00 00 
   471)      3774.2  Rx         04C0  8  00 00 00 00 00 00 00 78 
   472)      3774.3  Rx         04AA  8  D5 AE 00 C2 FF F5 FF C4 
   473)      3774.5  Rx         0540  8  29 75 07 2D 07 CE 00 00 
   474)      3774.6  Rx         04AC  8  09 76 07 2E 07 CE 00 00 
   475)      3774.8  Rx         04BE  8  00 00 00 00 00 00 00 00 
   476)      3774.9  Rx         04BF  8  00 00 FF EC 00 00 00 00 
   477)      3778.7  Rx         0080  8  00 05 02 01 00 9C 00 04 
   478)      3779.0  Rx         028C  8  00 00 00 00 00 00 00 00 
   479)      3779.1  Rx         038C  8  14 2E 00 00 00 00 00 00 
   480)      3779.2  Rx         048C  8  00 00 00 00 00 00 00 00 
   481)      3780.5  Rx         0210  8  00 00 00 00 00 00 00 00 
   482)      3780.5  Rx         0211  8  00 00 00 00 00 00 00 00 
   483)      3780.5  Rx         0212  8  00 00 00 00 00 00 00 00 
   484)      3780.5  Rx         0213  8  02 FF 00 00 00 00 00 00 
   485)      3780.9  Rx         04C2  8  06 05 04 06 00 00 00 00 
   486)      3781.6  Rx         0540  8  00 08 00 00 00 00 11 00 
   487)      3782.3  Rx         0440  8  00 03 00 00 FF FF 00 00 
   488)      3782.4  Rx         0341  8  00 00 00 00 00 00 00 00 
   489)      3782.6  Rx         0340  8  FF F1 FF C4 00 00 00 01 
   490)      3782.7  Rx         0241  8  06 00 05 04 05 02 8B A2 
   491)      3783.2  Rx         0240  8  00 00 FF E7 00 00 00 00 
   492)      3783.3  Rx         0540  8  1D 97 06 D1 0B 7A 0A 89 
   493)      3783.7  Rx         02C0  8  00 00 FF EC FF F5 FF C4 
   494)      3783.9  Rx         03C0  8  00 00 00 00 00 00 00 00 
   495)      3784.1  Rx         04C0  8  00 00 00 00 00 00 00 78 
   496)      3784.3  Rx         04AA  8  D5 AE 00 BF FF F1 FF C4 
   497)      3784.5  Rx         04AC  8  09 75 07 2D 07 CE 00 00 
   498)      3784.7  Rx         04BE  8  00 00 00 00 00 00 00 00 
   499)      3785.0  Rx         04BF  8  00 00 FF E2 00 00 00 00 
   500)      3788.7  Rx         0080  8  00 05 02 01 00 9C 00 04 
   501)      3789.0  Rx         028C  8  00 00 00 00 00 00 00 00 
   502)      3789.1  Rx         038C  8  14 2E 00 00 00 00 00 00 
   503)      3789.2  Rx         048C  8  00 00 00 00 00 00 00 00 
   504)      3790.5  Rx         0210  8  00 00 00 00 00 00 00 00 
   505)      3790.5  Rx         0211  8  00 00 00 00 00 00 00 00 
   506)      3790.5  Rx         0212  8  00 00 00 00 00 00 00 00 
   507)      3790.5  Rx         0213  8  02 FF 00 00 00 00 00 00 
   508)      3791.0  Rx         04C2  8  06 05 04 06 00 00 00 00 
   509)      3791.6  Rx         0540  8  00 08 00 00 00 00 12 00 
   510)      3792.3  Rx         0440  8  00 03 00 00 FF FF 00 00 
   511)      3792.5  Rx         0341  8  00 00 00 00 00 00 00 00 
   512)      3792.6  Rx         0340  8  FF F1 FF C4 00 00 00 01 
   513)      3792.7  Rx         0241  8  06 00 05 04 05 02 8B A2 
   514)      3793.4  Rx         0240  8  FF FC FF E3 00 00 00 00 
   515)      3793.7  Rx         02C0  8  00 00 FF E2 FF F1 FF C4 
   516)      3793.9  Rx         03C0  8  00 00 00 00 00 00 00 00 
   517)      3794.1  Rx         04C0  8  00 00 00 00 00 00 00 78 
   518)      3794.3  Rx         04AA  8  D5 AE 00 C2 FF F1 FF C4 
   519)      3794.5  Rx         04AC  8  09 75 07 2D 07 CE 00 00 
   520)      3794.7  Rx         0540  8  29 76 07 2D 07 CE 00 00 
   521)      3794.9  Rx         04BE  8  00 00 00 00 00 00 00 00 
   522)      3795.0  Rx         04BF  8  00 00 FF E7 00 00 00 00 
   523)      3798.7  Rx         0080  8  00 05 02 01 00 9C 00 04 
   524)      3799.0  Rx         028C  8  00 00 00 00 00 00 00 00 
   525)      3799.1  Rx         038C  8  14 2E 00 00 00 00 00 00 
   526)      3799.2  Rx         048C  8  00 00 00 00 00 00 00 00 
   527)      3800.5  Rx         0210  8  00 00 00 00 00 00 00 00 
   528)      3800.5  Rx         0211  8  00 00 00 00 00 00 00 00 
   529)      3800.5  Rx         0212  8  00 00 00 00 00 00 00 00 
   530)      3800.5  Rx         0213  8  02 FF 00 00 00 00 00 00 
   531)      3800.9  Rx         04C2  8  06 05 04 06 00 00 00 00 
   532)      3801.6  Rx         0540  8  00 08 00 00 00 00 13 00 
   533)      3802.4  Rx         0440  8  00 03 00 00 00 00 00 00 
   534)      3802.5  Rx         0340  8  FF F1 FF C6 00 00 00 01 
   535)      3802.7  Rx         0341  8  00 00 00 00 00 00 00 00 
   536)      3802.8  Rx         0240  8  FF FC FF E3 00 00 00 00 
   537)      3802.9  Rx         0241  8  06 00 05 04 05 02 8B A2 
   538)      3803.6  Rx         0540  8  1D 95 06 D1 0B 7B 0A 89 
   539)      3803.7  Rx         02C0  8  00 00 FF E7 FF F1 FF C4 
   540)      3803.9  Rx         03C0  8  00 00 00 00 00 00 00 00 
   541)      3804.2  Rx         04C0  8  00 00 00 00 00 00 00 78 
   542)      3804.3  Rx         04AA  8  D5 AE 00 C2 FF F1 FF C4 
   543)      3804.5  Rx         04AC  8  09 76 07 2D 07 CE 00 00 
   544)      3804.8  Rx         04BE  8  00 00 00 00 00 00 00 00 
   545)      3804.9  Rx         04BF  8  FF FC FF E3 00 00 00 00 
   546)      3808.7  Rx         0080  8  00 05 02 01 00 9C 00 05 
   547)      3809.0  Rx         028C  8  00 00 00 00 00 00 00 00 
   548)      3809.1  Rx         038C  8  14 2E 00 00 00 00 00 00 
   549)      3809.2  Rx         048C  8  00 00 00 00 00 00 00 00 
   550)      3810.5  Rx         0210  8  00 00 00 00 00 00 00 00 
   551)      3810.5  Rx         0211  8  00 00 00 00 00 00 00 00 
   552)      3810.5  Rx         0212  8  00 00 00 00 00 00 00 00 
   553)      3810.5  Rx         0213  8  02 FF 00 00 00 00 00 00 
   554)      3811.0  Rx         04C2  8  06 05 04 06 00 00 00 00 
   555)      3811.7  Rx         0540  8  00 08 00 00 00 00 14 00 
   556)      3812.4  Rx         0440  8  00 03 00 00 FF FF 00 00 
   557)      3812.6  Rx         0340  8  FF F1 FF C4 00 00 00 01 
   558)      3812.7  Rx         0341  8  00 00 00 00 00 00 00 00 
   559)      3812.8  Rx         0240  8  00 00 FF E7 00 00 00 00 
   560)      3812.9  Rx         0241  8  06 00 05 04 05 02 8B A2 
   561)      3813.6  Rx         0540  8  29 77 07 2D 07 CE 00 00 
   562)      3813.8  Rx         02C0  8  FF FC FF E3 FF F1 FF C4 
   563)      3813.9  Rx         03C0  8  00 00 00 00 00 00 00 00 
   564)      3814.1  Rx         04C0  8  00 00 00 00 00 00 00 78 
   565)      3814.3  Rx         04AA  8  D5 AE 00 C5 FF F1 FF C6 
   566)      3814.5  Rx         04AC  8  09 76 07 2D 07 CE 00 00 
   567)      3814.7  Rx         04BE  8  00 00 00 00 00 00 00 00 
   568)      3815.0  Rx         04BF  8  FF FC FF E3 00 00 00 00 
   569)      3818.7  Rx         0080  8  00 05 02 01 00 9C 00 04 
   570)      3819.0  Rx         028C  8  00 00 00 00 00 00 00 00 
   571)      3819.1  Rx         038C  8  14 2E 00 00 00 00 00 00 
   572)      3819.2  Rx         048C  8  00 00 00 00 00 00 00 00 
   573)      3820.5  Rx         0210  8  00 00 00 00 00 00 00 00 
   574)      3820.5  Rx         0211  8  00 00 00 00 00 00 00 00 
   575)      3820.5  Rx         0212  8  00 00 00 00 00 00 00 00 
   576)      3820.5  Rx         0213  8  02 FF 00 00 00 00 00 00 
   577)      3821.0  Rx         04C2  8  06 05 04 06 00 00 00 00 
   578)      3821.7  Rx         0540  8  00 08 00 00 00 00 15 00 
   579)      3822.4  Rx         0440  8  00 03 00 00 FF FF 00 00 
   580)      3822.6  Rx         0340  8  FF ED FF C4 00 00 00 01 
   581)      3822.8  Rx         0341  8  00 00 00 00 00 00 00 00 
   582)      3822.8  Rx         0240  8  FF FC FF E3 00 00 00 00 
   583)      3823.0  Rx         0241  8  06 00 05 04 04 02 8B A2 
   584)      3823.5  Rx         0540  8  1D 97 06 D1 0B 7B 0A 89 
   585)      3823.7  Rx         02C0  8  FF FC FF E3 FF F1 FF C6 
   586)      3824.0  Rx         03C0  8  00 00 00 00 00 00 00 00 
   587)      3824.1  Rx         04C0  8  00 00 00 00 00 00 00 78 
   588)      3824.3  Rx         04AA  8  D5 AE 00 BF FF F1 FF C4 
   589)      3824.6  Rx         04AC  8  09 77 07 2D 07 CE 00 00 
   590)      3824.7  Rx         04BE  8  00 00 00 00 00 00 00 00 
   591)      3824.9  Rx         04BF  8  00 00 FF E7 00 00 00 00 
   592)      3828.7  Rx         0080  8  00 05 02 01 00 9C 00 04 
   593)      3829.0  Rx         028C  8  00 00 00 00 00 00 00 00 
   594)      3829.1  Rx         038C  8  14 2E 00 00 00 00 00 00 
   595)      3829.2  Rx         048C  8  00 00 00 00 00 00 00 00 
   596)      3830.5  Rx         0210  8  00 00 00 00 00 00 00 00 
   597)      3830.5  Rx         0211  8  00 00 00 00 00 00 00 00 
   598)      3830.5  Rx         0212  8  00 00 00 00 00 00 00 00 
   599)      3830.5  Rx         0213  8  02 FF 00 00 00 00 00 00 
   600)      3831.2  Rx         04C2  8  06 05 04 06 00 00 00 00 
   601)      3831.8  Rx         0540  8  00 08 00 00 00 00 16 00 
   602)      3831.9  Rx         0341  8  00 00 00 00 00 00 00 00 
   603)      3832.0  Rx         0241  8  06 00 05 04 05 02 8B A2 
   604)      3832.5  Rx         0440  8  00 03 00 00 FF FF 00 00 
   605)      3833.5  Rx         0340  8  FF F5 FF C6 00 00 00 01 
   606)      3833.6  Rx         0240  8  00 00 FF E7 00 00 00 00 
   607)      3833.8  Rx         02C0  8  00 00 FF E7 FF F1 FF C4 
   608)      3833.9  Rx         0540  8  29 75 07 2C 07 CE 00 00 
   609)      3834.0  Rx         03C0  8  00 00 00 00 00 00 00 00 
   610)      3834.2  Rx         04C0  8  00 00 00 00 00 00 00 78 
   611)      3834.3  Rx         04AA  8  D5 AE 00 C2 FF ED FF C4 
   612)      3834.5  Rx         04AC  8  09 77 07 2D 07 CE 00 00 
   613)      3834.7  Rx         04BE  8  00 00 00 00 00 00 00 00 
   614)      3834.9  Rx         04BF  8  FF FC FF E3 00 00 00 00 
   615)      3838.7  Rx         0080  8  00 05 02 01 00 9C 00 04 
   616)      3839.0  Rx         028C  8  00 00 00 00 00 00 00 00 
   617)      3839.1  Rx         038C  8  14 2E 00 00 00 00 00 00 
   618)      3839.2  Rx         048C  8  00 00 00 00 00 00 00 00 
   619)      3840.5  Rx         0210  8  00 00 00 00 00 00 00 00 
   620)      3840.5  Rx         0211  8  00 00 00 00 00 00 00 00 
   621)      3840.5  Rx         0212  8  00 00 00 00 00 00 00 00 
   622)      3840.5  Rx         0213  8  02 FF 00 00 00 00 00 00 
   623)      3841.1  Rx         04C2  8  06 05 04 06 00 00 00 00 
   624)      3841.8  Rx         0540  8  00 08 00 00 00 00 17 00 
   625)      3841.9  Rx         0341  8  00 00 00 00 00 00 00 00 
   626)      3842.0  Rx         0241  8  06 00 05 04 05 02 8B A2 
   627)      3842.5  Rx         0440  8  00 03 00 00 FF FF 00 00 
   628)      3843.5  Rx         0340  8  FF F1 FF C4 00 00 00 01 
   629)      3843.7  Rx         0240  8  FF FC FF E3 00 00 00 00 
   630)      3843.8  Rx         02C0  8  FF FC FF E3 FF ED FF C4 
   631)      3843.9  Rx         0540  8  1D 97 06 D1 0B 7A 0A 89 
   632)      3844.1  Rx         03C0  8  00 00 00 00 00 00 00 00 
   633)      3844.2  Rx         04C0  8  00 00 00 00 00 00 00 78 
   634)      3844.4  Rx         04AA  8  D5 B5 00 C2 FF F5 FF C6 
   635)      3844.6  Rx         04AC  8  09 75 07 2C 07 CE 00 00 
   636)      3844.8  Rx         04BE  8  00 00 00 00 00 00 00 00 
   637)      3845.0  Rx         04BF  8  00 00 FF E7 00 00 00 00 
   638)      3848.7  Rx         0080  8  00 05 02 01 00 9C 00 04 
   639)      3849.0  Rx         028C  8  00 00 00 00 00 00 00 00 
   640)      3849.1  Rx         038C  8  14 2E 00 00 00 00 00 00 
   641)      3849.2  Rx         048C  8  00 00 00 00 00 00 00 00 
   642)      3850.5  Rx         0210  8  00 00 00 00 00 00 00 00 
   643)      3850.5  Rx         0211  8  00 00 00 00 00 00 00 00 
   644)      3850.5  Rx         0212  8  00 00 00 00 00 00 00 00 
   645)      3850.5  Rx         0213  8  02 FF 00 00 00 00 00 00 
   646)      3851.2  Rx         04C2  8  06 05 04 06 00 00 00 00 
   647)      3851.8  Rx         0540  8  00 08 00 00 00 00 18 00 
   648)      3851.9  Rx         0341  8  00 00 00 00 00 00 00 00 
   649)      3852.1  Rx         0241  8  06 00 05 04 05 02 8B A2 
   650)      3852.5  Rx         0440  8  00 03 00 00 FF FF 00 00 
   651)      3853.6  Rx         0340  8  FF ED FF C1 00 00 00 01 
   652)      3853.7  Rx         0240  8  FF FC FF E3 00 00 00 00 
   653)      3853.8  Rx         02C0  8  00 00 FF E7 FF F5 FF C6 
   654)      3853.9  Rx         0540  8  29 75 07 2D 07 CE 00 00 
   655)      3854.1  Rx         03C0  8  00 00 00 00 00 00 00 00 
   656)      3854.2  Rx         04C0  8  00 00 00 00 00 00 00 78 
   657)      3854.4  Rx         04AA  8  D5 AE 00 BF FF F1 FF C4 
   658)      3854.6  Rx         04AC  8  09 75 07 2C 07 CE 00 00 
   659)      3854.8  Rx         04BE  8  00 00 00 00 00 00 00 00 
   660)      3855.0  Rx         04BF  8  FF FC FF E3 00 00 00 00 
   661)      3858.7  Rx         0080  8  00 05 02 01 00 9C 00 04 
   662)      3859.0  Rx         028C  8  00 00 00 00 00 00 00 00 
   663)      3859.1  Rx         038C  8  14 2E 00 00 00 00 00 00 
   664)      3859.2  Rx         048C  8  00 00 00 00 00 00 00 00 
   665)      3860.4  Rx         0210  8  00 00 00 00 00 00 00 00 
   666)      3860.5  Rx         0211  8  00 00 00 00 00 00 00 00 
   667)      3860.5  Rx         0212  8  00 00 00 00 00 00 00 00 
   668)      3860.5  Rx         0213  8  02 FF 00 00 00 00 00 00 
   669)      3860.5  Rx         04C2  8  06 05 04 06 00 00 00 00 
   670)      3861.3  Rx         0540  8  00 08 00 00 00 00 19 00 
   671)      3861.9  Rx         0440  8  00 03 00 00 FF FF 00 00 
   672)      3862.1  Rx         0341  8  00 00 00 00 00 00 00 00 
   673)      3862.2  Rx         0241  8  06 00 05 04 05 02 8B A2 
   674)      3862.7  Rx         0340  8  FF ED FF C1 00 00 00 01 
   675)      3863.7  Rx         0240  8  FF FC FF E3 00 00 00 00 
   676)      3863.8  Rx         02C0  8  FF FC FF E3 FF F1 FF C4 
   677)      3863.9  Rx         0540  8  1D 96 06 D1 0B 7A 0A 89 
   678)      3864.1  Rx         03C0  8  00 00 00 00 00 00 00 00 
   679)      3864.2  Rx         04C0  8  00 00 00 00 00 00 00 78 
   680)      3864.4  Rx         04AA  8  D5 AE 00 BF FF ED FF C1 
   681)      3864.6  Rx         04AC  8  09 75 07 2D 07 CE 00 00 
   682)      3864.8  Rx         04BE  8  00 00 00 00 00 00 00 00 
   683)      3865.0  Rx         04BF  8  FF FC FF E3 00 00 00 00 
   684)      3868.7  Rx         0080  8  00 05 02 01 00 9C 00 04 
   685)      3869.0  Rx         028C  8  00 00 00 00 00 00 00 00 
   686)      3869.1  Rx         038C  8  14 2E 00 00 00 00 00 00 
   687)      3869.2  Rx         048C  8  00 00 00 00 00 00 00 00 
   688)      3870.4  Rx         0210  8  00 00 00 00 00 00 00 00 
   689)      3870.4  Rx         0211  8  00 00 00 00 00 00 00 00 
   690)      3870.5  Rx         0212  8  00 00 00 00 00 00 00 00 
   691)      3870.5  Rx         0213  8  02 FF 00 00 00 00 00 00 
   692)      3870.5  Rx         04C2  8  06 05 04 06 00 00 00 00 
   693)      3871.3  Rx         0540  8  00 08 00 00 00 00 1A 00 
   694)      3872.0  Rx         0440  8  00 03 00 00 FF FF 00 00 
   695)      3872.1  Rx         0341  8  00 00 00 00 00 00 00 00 
   696)      3872.3  Rx         0241  8  06 00 05 04 05 02 8B A2 
   697)      3872.7  Rx         0340  8  FF F1 FF C4 00 00 00 01 
   698)      3873.7  Rx         0240  8  00 00 FF E7 00 00 00 00 
   699)      3873.8  Rx         02C0  8  FF FC FF E3 FF ED FF C1 
   700)      3873.9  Rx         0540  8  29 75 07 2C 07 CF 00 00 
   701)      3874.0  Rx         03C0  8  00 00 00 00 00 00 00 00 
   702)      3874.2  Rx         04C0  8  00 00 00 00 00 00 00 78 
   703)      3874.4  Rx         04AA  8  D5 AE 00 C2 FF ED FF C1 
   704)      3874.6  Rx         04AC  8  09 75 07 2D 07 CE 00 00 
   705)      3874.8  Rx         04BE  8  00 00 00 00 00 00 00 00 
   706)      3875.0  Rx         04BF  8  FF FC FF E3 00 00 00 00 
   707)      3878.7  Rx         0080  8  00 05 02 01 00 9C 00 04 
   708)      3879.0  Rx         028C  8  00 00 00 00 00 00 00 00 
   709)      3879.1  Rx         038C  8  14 2E 00 00 00 00 00 00 
   710)      3879.2  Rx         048C  8  00 00 00 00 00 00 00 00 
   711)      3880.4  Rx         0210  8  00 00 00 00 00 00 00 00 
   712)      3880.5  Rx         0211  8  00 00 00 00 00 00 00 00 
   713)      3880.5  Rx         0212  8  00 00 00 00 00 00 00 00 
   714)      3880.5  Rx         0213  8  02 FF 00 00 00 00 00 00 
   715)      3880.5  Rx         04C2  8  06 05 04 06 00 00 00 00 
   716)      3881.3  Rx         0540  8  00 08 00 00 00 00 1B 00 
   717)      3881.9  Rx         0440  8  00 03 00 00 FF FF 00 00 
   718)      3882.1  Rx         0341  8  00 00 00 00 00 00 00 00 
   719)      3882.3  Rx         0241  8  06 00 05 04 05 02 8B A2 
   720)      3882.7  Rx         0340  8  FF ED FF C4 00 00 00 01 
   721)      3883.7  Rx         0240  8  FF FC FF E3 00 00 00 00 
   722)      3883.8  Rx         02C0  8  FF FC FF E3 FF ED FF C1 
   723)      3883.9  Rx         0540  8  1D 97 06 D1 0B 7A 0A 89 
   724)      3884.0  Rx         03C0  8  00 00 00 00 00 00 00 00 
   725)      3884.2  Rx         04C0  8  00 00 00 00 00 00 00 78 
   726)      3884.4  Rx         04AA  8  D5 AE 00 C2 FF F1 FF C4 
   727)      3884.6  Rx         04AC  8  09 75 07 2C 07 CF 00 00 
   728)      3884.8  Rx         04BE  8  00 00 00 00 00 00 00 00 
   729)      3885.0  Rx         04BF  8  00 00 FF E7 00 00 00 00 
   730)      3888.7  Rx         0080  8  00 05 02 01 00 9C 00 04 
   731)      3889.0  Rx         028C  8  00 00 00 00 00 00 00 00 
   732)      3889.1  Rx         038C  8  14 2E 00 00 00 00 00 00 
   733)      3889.2  Rx         048C  8  00 00 00 00 00 00 00 00 
   734)      3890.4  Rx         0210  8  00 00 00 00 00 00 00 00 
   735)      3890.4  Rx         0211  8  00 00 00 00 00 00 00 00 
   736)      3890.5  Rx         0212  8  00 00 00 00 00 00 00 00 
   737)      3890.5  Rx         0213  8  02 FF 00 00 00 00 00 00 
   738)      3890.5  Rx         04C2  8  06 05 04 06 00 00 00 00 
   739)      3891.3  Rx         0540  8  00 08 00 00 00 00 1C 00 
   740)      3891.9  Rx         0440  8  00 03 00 00 FF FF 00 00 
   741)      3892.2  Rx         0341  8  00 00 00 00 00 00 00 00 
   742)      3892.3  Rx         0241  8  06 00 05 04 05 02 8B A2 
   743)      3892.6  Rx         0340  8  FF F1 FF C4 00 00 00 01 
   744)      3893.7  Rx         0240  8  FF FC FF E8 00 00 00 00 
   745)      3893.8  Rx         02C0  8  00 00 FF E7 FF F1 FF C4 
   746)      3893.9  Rx         0540  8  29 75 07 2C 07 CE 00 00 
   747)      3894.1  Rx         03C0  8  00 00 00 00 00 00 00 00 
   748)      3894.2  Rx         04C0  8  00 00 00 00 00 00 00 78 
   749)      3894.4  Rx         04AA  8  D5 AE 00 BF FF ED FF C4 
   750)      3894.6  Rx         04AC  8  09 75 07 2C 07 CF 00 00 
   751)      3894.8  Rx         04BE  8  00 00 00 00 00 00 00 00 
   752)      3895.0  Rx         04BF  8  FF FC FF E3 00 00 00 00 
   753)      3898.7  Rx         0080  8  00 05 02 01 00 9C 00 04 
   754)      3899.0  Rx         028C  8  00 00 00 00 00 00 00 00 
   755)      3899.1  Rx         038C  8  14 2E 00 00 00 00 00 00 
   756)      3899.2  Rx         048C  8  00 00 00 00 00 00 00 00 
   757)      3900.4  Rx         0210  8  00 00 00 00 00 00 00 00 
   758)      3900.4  Rx         0211  8  00 00 00 00 00 00 00 00 
   759)      3900.5  Rx         0212  8  00 00 00 00 00 00 00 00 
   760)      3900.5  Rx         0213  8  02 FF 00 00 00 00 00 00 
   761)      3900.5  Rx         04C2  8  06 05 04 06 00 00 00 00 
   762)      3901.3  Rx         0540  8  00 08 00 00 00 00 1D 00 
   763)      3902.0  Rx         0440  8  00 03 00 00 FF FF 00 00 
   764)      3902.2  Rx         0341  8  00 00 00 00 00 00 00 00 
   765)      3902.4  Rx         0241  8  06 00 05 04 05 02 8B A2 
   766)      3902.7  Rx         0340  8  FF F1 FF C1 00 00 00 01 
   767)      3903.7  Rx         02C0  8  FF FC FF E3 FF ED FF C4 
   768)      3903.9  Rx         0240  8  00 00 FF E7 00 00 00 00 
   769)      3904.0  Rx         03C0  8  00 00 00 00 00 00 00 00 
   770)      3904.1  Rx         0540  8  1D 96 06 D1 0B 7A 0A 89 
   771)      3904.2  Rx         04C0  8  00 00 00 00 00 00 00 78 
   772)      3904.4  Rx         04AA  8  D5 AE 00 BF FF F1 FF C4 
   773)      3904.6  Rx         04AC  8  09 75 07 2C 07 CE 00 00 
   774)      3904.8  Rx         04BE  8  00 00 00 00 00 00 00 00 
   775)      3905.0  Rx         04BF  8  FF FC FF E8 00 00 00 00 
   776)      3908.7  Rx         0080  8  00 05 02 01 00 9C 00 05 
   777)      3909.0  Rx         028C  8  00 00 00 00 00 00 00 00 
   778)      3909.1  Rx         038C  8  14 2E 00 00 00 00 00 00 
   779)      3909.2  Rx         048C  8  00 00 00 00 00 00 00 00 
   780)      3910.5  Rx         0210  8  00 00 00 00 00 00 00 00 
   781)      3910.5  Rx         0211  8  00 00 00 00 00 00 00 00 
   782)      3910.5  Rx         0212  8  00 00 00 00 00 00 00 00 
   783)      3910.5  Rx         0213  8  02 FF 00 00 00 00 00 00 
   784)      3910.6  Rx         04C2  8  06 05 04 06 00 00 00 00 
   785)      3911.3  Rx         0540  8  00 08 00 00 00 00 1E 00 
   786)      3912.1  Rx         0440  8  00 03 00 00 FF FF 00 00 
   787)      3912.4  Rx         0341  8  00 00 00 00 00 00 00 00 
   788)      3912.5  Rx         0241  8  06 00 05 04 05 02 8B A2 
   789)      3912.8  Rx         0340  8  FF ED FF C4 00 00 00 01 
   790)      3913.7  Rx         02C0  8  FF FC FF E8 FF F1 FF C4 
   791)      3913.9  Rx         0240  8  00 00 FF EC 00 00 00 00 
   792)      3914.0  Rx         03C0  8  00 00 00 00 00 00 00 00 
   793)      3914.1  Rx         0540  8  29 74 07 2D 07 CF 00 00 
   794)      3914.2  Rx         04C0  8  00 00 00 00 00 00 00 78 
   795)      3914.4  Rx         04AA  8  D5 AE 00 BF FF F1 FF C1 
   796)      3914.6  Rx         04AC  8  09 75 07 2C 07 CE 00 00 
   797)      3914.8  Rx         04BE  8  00 00 00 00 00 00 00 00 
   798)      3915.0  Rx         04BF  8  00 00 FF E7 00 00 00 00 
   799)      3918.7  Rx         0080  8  00 05 02 01 00 9C 00 04 
   800)      3919.0  Rx         028C  8  00 00 00 00 00 00 00 00 
   801)      3919.1  Rx         038C  8  14 2E 00 00 00 00 00 00 
   802)      3919.2  Rx         048C  8  00 00 00 00 00 00 00 00 
   803)      3920.4  Rx         0210  8  00 00 00 00 00 00 00 00 
   804)      3920.4  Rx         0211  8  00 00 00 00 00 00 00 00 
   805)      3920.5  Rx         0212  8  00 00 00 00 00 00 00 00 
   806)      3920.5  Rx         0213  8  02 FF 00 00 00 00 00 00 
   807)      3920.5  Rx         04C2  8  06 05 04 06 00 00 00 00 
   808)      3921.3  Rx         0540  8  00 08 00 00 00 00 1F 00 
   809)      3922.3  Rx         0440  8  00 03 00 00 FF FF 00 00 
   810)      3922.4  Rx         0341  8  00 00 00 00 00 00 00 00 
   811)      3922.6  Rx         0241  8  06 00 05 04 05 02 8B A2 
   812)      3923.0  Rx         0340  8  FF F5 FF C6 00 00 00 01 
   813)      3923.8  Rx         02C0  8  00 00 FF E7 FF F1 FF C1 
   814)      3923.9  Rx         03C0  8  00 00 00 00 00 00 00 00 
   815)      3924.0  Rx         0240  8  FF FC FF E3 00 00 00 00 
   816)      3924.2  Rx         04C0  8  00 00 00 00 00 00 00 78 
   817)      3924.3  Rx         04AA  8  D5 AE 00 C2 FF ED FF C4 
   818)      3924.5  Rx         04AC  8  09 74 07 2D 07 CF 00 00 
   819)      3924.7  Rx         04BE  8  00 00 00 00 00 00 00 00 
   820)      3924.9  Rx         04BF  8  00 00 FF EC 00 00 00 00 
   821)      3925.4  Rx         0540  8  1D 96 06 D0 0B 7A 0A 89 
   822)      3928.7  Rx         0080  8  00 05 02 01 00 9C 00 04 
   823)      3929.0  Rx         028C  8  00 00 00 00 00 00 00 00 
   824)      3929.1  Rx         038C  8  14 2E 00 00 00 00 00 00 
   825)      3929.2  Rx         048C  8  00 00 00 00 00 00 00 00 
   826)      3930.5  Rx         0210  8  00 00 00 00 00 00 00 00 
   827)      3930.5  Rx         0211  8  00 00 00 00 00 00 00 00 
   828)      3930.5  Rx         0212  8  00 00 00 00 00 00 00 00 
   829)      3930.5  Rx         0213  8  02 FF 00 00 00 00 00 00 
   830)      3930.5  Rx         04C2  8  06 05 04 06 00 00 00 00 
   831)      3931.4  Rx         0540  8  00 08 00 00 00 00 20 00 
   832)      3932.1  Rx         0440  8  00 03 00 00 FF FF 00 00 
   833)      3932.5  Rx         0341  8  00 00 00 00 00 00 00 00 
   834)      3932.7  Rx         0241  8  06 00 05 04 05 02 8B A2 
   835)      3932.8  Rx         0340  8  FF F1 FF C4 00 00 00 01 
   836)      3933.7  Rx         02C0  8  00 00 FF EC FF ED FF C4 
   837)      3933.9  Rx         0240  8  FF FC FF DE 00 00 00 00 
   838)      3934.0  Rx         03C0  8  00 00 00 00 00 00 00 00 
   839)      3934.1  Rx         0540  8  29 75 07 2B 07 CD 00 00 
   840)      3934.2  Rx         04C0  8  00 00 00 00 00 00 00 78 
   841)      3934.4  Rx         04AA  8  D5 AE 00 BF FF F5 FF C6 
   842)      3934.6  Rx         04AC  8  09 74 07 2D 07 CF 00 00 
   843)      3934.8  Rx         04BE  8  00 00 00 00 00 00 00 00 
   844)      3935.0  Rx         04BF  8  FF FC FF E3 00 00 00 00 
   845)      3938.7  Rx         0080  8  00 05 02 01 00 9C 00 04 
   846)      3939.0  Rx         028C  8  00 00 00 00 00 00 00 00 
   847)      3939.1  Rx         038C  8  14 2E 00 00 00 00 00 00 
   848)      3939.2  Rx         048C  8  00 00 00 00 00 00 00 00 
   849)      3940.4  Rx         0210  8  00 00 00 00 00 00 00 00 
   850)      3940.4  Rx         0211  8  00 00 00 00 00 00 00 00 
   851)      3940.4  Rx         0212  8  00 00 00 00 00 00 00 00 
   852)      3940.5  Rx         0213  8  02 FF 00 00 00 00 00 00 
   853)      3940.6  Rx         04C2  8  06 05 04 06 00 00 00 00 
   854)      3941.4  Rx         0540  8  00 08 00 00 00 00 21 00 
   855)      3942.1  Rx         0440  8  00 03 00 00 FF FF 00 00 
   856)      3942.5  Rx         0341  8  00 00 00 00 00 00 00 00 
   857)      3942.7  Rx         0241  8  06 00 05 04 05 02 8B A2 
   858)      3942.9  Rx         0340  8  FF F1 FF C4 00 00 00 01 
   859)      3943.7  Rx         02C0  8  FF FC FF E3 FF F5 FF C6 
   860)      3943.9  Rx         0240  8  FF FC FF E3 00 00 00 00 
   861)      3944.0  Rx         03C0  8  00 00 00 00 00 00 00 00 
   862)      3944.1  Rx         04C0  8  00 00 00 00 00 00 00 78 
   863)      3944.3  Rx         0540  8  1D 96 06 D5 0B 7A 0A 89 
   864)      3944.4  Rx         04AA  8  D5 AE 00 BF FF F1 FF C4 
   865)      3944.5  Rx         04AC  8  09 75 07 2B 07 CD 00 00 
   866)      3944.7  Rx         04BE  8  00 00 00 00 00 00 00 00 
   867)      3945.0  Rx         04BF  8  FF FC FF DE 00 00 00 00 
   868)      3948.7  Rx         0080  8  00 05 02 01 00 9C 00 04 
   869)      3949.0  Rx         028C  8  00 00 00 00 00 00 00 00 
   870)      3949.1  Rx         038C  8  14 2E 00 00 00 00 00 00 
   871)      3949.2  Rx         048C  8  00 00 00 00 00 00 00 00 
   872)      3950.4  Rx         0210  8  00 00 00 00 00 00 00 00 
   873)      3950.4  Rx         0211  8  00 00 00 00 00 00 00 00 
   874)      3950.4  Rx         0212  8  00 00 00 00 00 00 00 00 
   875)      3950.4  Rx         0213  8  02 FF 00 00 00 00 00 00 
   876)      3950.6  Rx         04C2  8  06 05 04 06 00 00 00 00 
   877)      3951.5  Rx         0540  8  00 08 00 00 00 00 22 00 
   878)      3952.2  Rx         0440  8  00 03 00 00 FF FF 00 00 
   879)      3952.6  Rx         0341  8  00 00 00 00 00 00 00 00 
   880)      3952.8  Rx         0241  8  06 00 05 04 05 02 8B A2 
   881)      3952.9  Rx         0340  8  FF F1 FF C4 00 00 00 01 
   882)      3953.7  Rx         02C0  8  FF FC FF DE FF F1 FF C4 
   883)      3954.0  Rx         0240  8  FF FC FF E3 00 00 00 00 
   884)      3954.0  Rx         03C0  8  00 00 00 00 00 00 00 00 
   885)      3954.2  Rx         04C0  8  00 00 00 00 00 00 00 78 
   886)      3954.3  Rx         0540  8  29 74 07 2C 07 CE 00 00 
   887)      3954.5  Rx         04AA  8  D5 AE 00 BF FF F1 FF C4 
   888)      3954.6  Rx         04AC  8  09 75 07 2B 07 CD 00 00 
   889)      3954.8  Rx         04BE  8  00 00 00 00 00 00 00 00 
   890)      3955.0  Rx         04BF  8  FF FC FF E3 00 00 00 00 
   891)      3958.7  Rx         0080  8  00 05 02 01 00 9C 00 04 
   892)      3959.0  Rx         028C  8  00 00 00 00 00 00 00 00 
   893)      3959.1  Rx         038C  8  14 2E 00 00 00 00 00 00 
   894)      3959.2  Rx         048C  8  00 00 00 00 00 00 00 00 
   895)      3960.4  Rx         0210  8  00 00 00 00 00 00 00 00 
   896)      3960.4  Rx         0211  8  00 00 00 00 00 00 00 00 
   897)      3960.4  Rx         0212  8  00 00 00 00 00 00 00 00 
   898)      3960.4  Rx         0213  8  02 FF 00 00 00 00 00 00 
   899)      3960.7  Rx         04C2  8  06 05 04 06 00 00 00 00 
   900)      3961.5  Rx         0540  8  00 08 00 00 00 00 23 00 
   901)      3962.2  Rx         0440  8  00 03 00 00 FF FF 00 00 
   902)      3962.7  Rx         0341  8  00 00 00 00 00 00 00 00 
   903)      3962.8  Rx         0241  8  06 00 05 04 05 02 8B A2 
   904)      3963.0  Rx         0340  8  FF F1 FF C4 00 00 00 01 
   905)      3963.7  Rx         02C0  8  FF FC FF E3 FF F1 FF C4 
   906)      3963.9  Rx         03C0  8  00 00 00 00 00 00 00 00 
   907)      3964.1  Rx         0240  8  FF FC FF E3 00 00 00 00 
   908)      3964.2  Rx         04C0  8  00 00 00 00 00 00 00 78 
   909)      3964.3  Rx         04AA  8  D5 B5 00 BF FF F1 FF C4 
   910)      3964.5  Rx         04AC  8  09 74 07 2C 07 CE 00 00 
   911)      3964.8  Rx         04BE  8  00 00 00 00 00 00 00 00 
   912)      3964.9  Rx         04BF  8  FF FC FF E3 00 00 00 00 
   913)      3965.3  Rx         0540  8  1D 97 06 D1 0B 7A 0A 89 
   914)      3968.7  Rx         0080  8  00 05 02 01 00 9C 00 04 
   915)      3969.0  Rx         028C  8  00 00 00 00 00 00 00 00 
   916)      3969.1  Rx         038C  8  14 2E 00 00 00 00 00 00 
   917)      3969.2  Rx         048C  8  00 00 00 00 00 00 00 00 
   918)      3970.4  Rx         0210  8  00 00 00 00 00 00 00 00 
   919)      3970.4  Rx         0211  8  00 00 00 00 00 00 00 00 
   920)      3970.4  Rx         0212  8  00 00 00 00 00 00 00 00 
   921)      3970.4  Rx         0213  8  02 FF 00 00 00 00 00 00 
   922)      3970.7  Rx         04C2  8  06 05 04 06 00 00 00 00 
   923)      3971.5  Rx         0540  8  00 08 00 00 00 00 24 00 
   924)      3972.3  Rx         0440  8  00 03 00 00 FF FF 00 00 
   925)      3972.4  Rx         0341  8  00 00 00 00 00 00 00 00 
   926)      3972.5  Rx         0241  8  06 00 05 04 05 02 8B A2 
   927)      3973.0  Rx         0340  8  FF ED FF C6 00 00 00 01 
   928)      3973.8  Rx         02C0  8  FF FC FF E3 FF F1 FF C4 
   929)      3973.9  Rx         03C0  8  00 00 00 00 00 00 00 00 
   930)      3974.1  Rx         0240  8  FF FC FF E3 00 00 00 00 
   931)      3974.2  Rx         04C0  8  00 00 00 00 00 00 00 78 
   932)      3974.4  Rx         04AA  8  D5 B5 00 BF FF F1 FF C4 
   933)      3974.5  Rx         04AC  8  09 74 07 2C 07 CE 00 00 
   934)      3974.7  Rx         04BE  8  00 00 00 00 00 00 00 00 
   935)      3974.9  Rx         04BF  8  FF FC FF E3 00 00 00 00 
   936)      3975.2  Rx         0540  8  29 74 07 2C 07 CE 00 00 
   937)      3978.7  Rx         0080  8  00 05 02 01 00 9C 00 04 
   938)      3979.0  Rx         028C  8  00 00 00 00 00 00 00 00 
   939)      3979.1  Rx         038C  8  14 2E 00 00 00 00 00 00 
   940)      3979.2  Rx         048C  8  00 00 00 00 00 00 00 00 
   941)      3980.4  Rx         0210  8  00 00 00 00 00 00 00 00 
   942)      3980.4  Rx         0211  8  00 00 00 00 00 00 00 00 
   943)      3980.4  Rx         0212  8  00 00 00 00 00 00 00 00 
   944)      3980.5  Rx         0213  8  02 FF 00 00 00 00 00 00 
   945)      3980.7  Rx         04C2  8  06 05 04 06 00 00 00 00 
   946)      3981.6  Rx         0540  8  00 08 00 00 00 00 25 00 
   947)      3982.3  Rx         0440  8  00 03 00 00 FF FF 00 00 
   948)      3982.5  Rx         0341  8  00 00 00 00 00 00 00 00 
   949)      3982.5  Rx         0241  8  06 00 05 04 05 02 8B A2 
   950)      3983.1  Rx         0340  8  FF F1 FF C4 00 00 00 01 
   951)      3983.7  Rx         02C0  8  FF FC FF E3 FF F1 FF C4 
   952)      3984.0  Rx         03C0  8  00 00 00 00 00 00 00 00 
   953)      3984.1  Rx         0240  8  FF FC FF E3 00 00 00 00 
   954)      3984.2  Rx         04C0  8  00 00 00 00 00 00 00 78 
   955)      3984.3  Rx         04AA  8  D5 AE 00 C2 FF ED FF C6 
   956)      3984.5  Rx         04AC  8  09 74 07 2C 07 CE 00 00 
   957)      3984.8  Rx         04BE  8  00 00 00 00 00 00 00 00 
   958)      3984.9  Rx         04BF  8  FF FC FF E3 00 00 00 00 
   959)      3985.4  Rx         0540  8  1D 97 06 D1 0B 7A 0A 89 
   960)      3988.7  Rx         0080  8  00 05 02 01 00 9C 00 04 
   961)      3989.0  Rx         028C  8  00 00 00 00 00 00 00 00 
   962)      3989.1  Rx         038C  8  14 2E 00 00 00 00 00 00 
   963)      3989.2  Rx         048C  8  00 00 00 00 00 00 00 00 
   964)      3990.4  Rx         0210  8  00 00 00 00 00 00 00 00 
   965)      3990.4  Rx         0211  8  00 00 00 00 00 00 00 00 
   966)      3990.4  Rx         0212  8  00 00 00 00 00 00 00 00 
   967)      3990.4  Rx         0213  8  02 FF 00 00 00 00 00 00 
   968)      3990.8  Rx         04C2  8  06 05 04 06 00 00 00 00 
   969)      3991.6  Rx         0540  8  00 08 00 00 00 00 26 00 
   970)      3992.4  Rx         0440  8  00 03 00 00 FF FF 00 00 
   971)      3992.5  Rx         0341  8  00 00 00 00 00 00 00 00 
   972)      3992.6  Rx         0241  8  06 00 05 04 05 02 8B A2 
   973)      3993.1  Rx         0340  8  FF F1 FF C4 00 00 00 01 
   974)      3993.7  Rx         02C0  8  FF FC FF E3 FF ED FF C6 
   975)      3993.9  Rx         03C0  8  00 00 00 00 00 00 00 00 
   976)      3994.1  Rx         0240  8  FF FC FF E3 00 00 00 00 
   977)      3994.2  Rx         04C0  8  00 00 00 00 00 00 00 78 
   978)      3994.4  Rx         04AA  8  D5 AE 00 BF FF F1 FF C4 
   979)      3994.6  Rx         04AC  8  09 74 07 2C 07 CE 00 00 
   980)      3994.8  Rx         04BE  8  00 00 00 00 00 00 00 00 
   981)      3995.0  Rx         04BF  8  FF FC FF E3 00 00 00 00 
   982)      3995.5  Rx         0540  8  29 74 07 2C 07 CE 00 00 
   983)      3998.7  Rx         0080  8  00 05 02 01 00 9C 00 04 
   984)      3999.0  Rx         028C  8  00 00 00 00 00 00 00 00 
   985)      3999.1  Rx         038C  8  14 2E 00 00 00 00 00 00 
   986)      3999.2  Rx         048C  8  00 00 00 00 00 00 00 00 
   987)      4000.4  Rx         0210  8  00 00 00 00 00 00 00 00 
   988)      4000.4  Rx         0211  8  00 00 00 00 00 00 00 00 
   989)      4000.4  Rx         0212  8  00 00 00 00 00 00 00 00 
   990)      4000.4  Rx         0213  8  02 FF 00 00 00 00 00 00 
   991)      4000.8  Rx         04C2  8  06 05 04 06 00 00 00 00 
   992)      4001.7  Rx         0540  8  00 08 00 00 00 00 27 00 
   993)      4002.4  Rx         0440  8  00 03 00 00 FF FF 00 00 
   994)      4002.5  Rx         0341  8  00 00 00 00 00 00 00 00 
   995)      4002.7  Rx         0241  8  06 00 05 04 05 02 8B A2 
   996)      4003.1  Rx         0340  8  FF F1 FF C1 00 00 00 01 
   997)      4003.7  Rx         02C0  8  FF FC FF E3 FF F1 FF C4 
   998)      4003.9  Rx         03C0  8  00 00 00 00 00 00 00 00 
   999)      4004.1  Rx         0240  8  00 00 FF E7 00 00 00 00 
  1000)      4004.3  Rx         04C0  8  00 00 00 00 00 00 00 78 
  1001)      4004.4  Rx         04AA  8  D5 B5 00 BF FF F1 FF C4 
  1002)      4004.6  Rx         04AC  8  09 74 07 2C 07 CE 00 00 
  1003)      4004.8  Rx         04BE  8  00 00 00 00 00 00 00 00 
  1004)      4005.0  Rx         04BF  8  FF FC FF E3 00 00 00 00 
  1005)      4005.5  Rx         0540  8  1D 96 06 D1 0B 7B 0A 88 
  1006)      4008.7  Rx         0080  8  00 05 02 01 00 9C 00 05 
  1007)      4009.0  Rx         028C  8  00 00 00 00 00 00 00 00 
  1008)      4009.1  Rx         038C  8  14 2E 00 00 00 00 00 00 
  1009)      4009.2  Rx         048C  8  00 00 00 00 00 00 00 00 
  1010)      4010.4  Rx         0210  8  00 00 00 00 00 00 00 00 
  1011)      4010.4  Rx         0211  8  00 00 00 00 00 00 00 00 
  1012)      4010.4  Rx         0212  8  00 00 00 00 00 00 00 00 
  1013)      4010.4  Rx         0213  8  02 FF 00 00 00 00 00 00 
  1014)      4011.0  Rx         04C2  8  06 05 04 06 00 00 00 00 
  1015)      4011.7  Rx         0540  8  00 08 00 00 00 00 28 00 
  1016)      4012.4  Rx         0440  8  00 04 00 00 FF FF 00 00 
  1017)      4012.6  Rx         0341  8  00 00 00 00 00 00 00 00 
  1018)      4012.8  Rx         0241  8  06 00 05 04 05 02 8B A2 
  1019)      4013.1  Rx         0340  8  FF F1 FF C4 00 00 00 01 
  1020)      4013.7  Rx         02C0  8  FF FC FF E3 FF F1 FF C4 
  1021)      4013.9  Rx         03C0  8  00 00 00 00 00 00 00 00 
  1022)      4014.2  Rx         04C0  8  00 00 00 00 00 00 00 78 
  1023)      4014.2  Rx         0240  8  FF FC FF E3 00 00 00 00 
  1024)      4014.4  Rx         04AA  8  D5 A8 00 BF FF F1 FF C1 
  1025)      4014.5  Rx         04AC  8  09 74 07 2C 07 CE 00 00 
  1026)      4014.8  Rx         04BE  8  00 00 00 00 00 00 00 00 
  1027)      4014.9  Rx         04BF  8  00 00 FF E7 00 00 00 00 
  1028)      4015.4  Rx         0540  8  29 74 07 2C 07 CE 00 00 
  1029)      4018.7  Rx         0080  8  00 05 02 01 00 9C 00 04 
  1030)      4019.0  Rx         028C  8  00 00 00 00 00 00 00 00 
  1031)      4019.1  Rx         038C  8  14 2E 00 00 00 00 00 00 
  1032)      4019.2  Rx         048C  8  00 00 00 00 00 00 00 00 
  1033)      4020.4  Rx         0210  8  00 00 00 00 00 00 00 00 
  1034)      4020.4  Rx         0211  8  00 00 00 00 00 00 00 00 
  1035)      4020.4  Rx         0212  8  00 00 00 00 00 00 00 00 
  1036)      4020.4  Rx         0213  8  02 FF 00 00 00 00 00 00 
  1037)      4020.9  Rx         04C2  8  06 05 04 06 00 00 00 00 
  1038)      4021.8  Rx         0540  8  00 08 00 00 00 00 29 00 
  1039)      4022.5  Rx         0440  8  00 03 00 00 FF FF 00 00 
  1040)      4022.6  Rx         0341  8  00 00 00 00 00 00 00 00 
  1041)      4022.8  Rx         0241  8  06 00 05 04 05 02 8B A2 
  1042)      4023.2  Rx         0340  8  FF F1 FF C4 00 00 00 01 
  1043)      4023.8  Rx         02C0  8  00 00 FF E7 FF F1 FF C1 
  1044)      4023.9  Rx         03C0  8  00 00 00 00 00 00 00 00 
  1045)      4024.1  Rx         04C0  8  00 00 00 00 00 00 00 78 
  1046)      4024.3  Rx         0240  8  FF FC FF E3 00 00 00 00 
  1047)      4024.4  Rx         04AA  8  D5 AE 00 BC FF F1 FF C4 
  1048)      4024.5  Rx         04AC  8  09 74 07 2C 07 CE 00 00 
  1049)      4024.7  Rx         04BE  8  00 00 00 00 00 00 00 00 
  1050)      4025.0  Rx         04BF  8  FF FC FF E3 00 00 00 00 
  1051)      4025.6  Rx         0540  8  1D 97 06 D1 0B 7A 0A 89 
  1052)      4028.7  Rx         0080  8  00 05 02 01 00 9C 00 04 
  1053)      4029.0  Rx         028C  8  00 00 00 00 00 00 00 00 
  1054)      4029.1  Rx         038C  8  14 2E 00 00 00 00 00 00 
  1055)      4029.2  Rx         048C  8  00 00 00 00 00 00 00 00 
  1056)      4030.4  Rx         0210  8  00 00 00 00 00 00 00 00 
  1057)      4030.5  Rx         0211  8  00 00 00 00 00 00 00 00 
  1058)      4030.5  Rx         0212  8  00 00 00 00 00 00 00 00 
  1059)      4030.5  Rx         0213  8  02 FF 00 00 00 00 00 00 
  1060)      4031.0  Rx         04C2  8  06 05 04 06 00 00 00 00 
  1061)      4031.7  Rx         0540  8  00 08 00 00 00 00 2A 00 
  1062)      4032.5  Rx         0440  8  00 03 00 00 FF FF 00 00 
  1063)      4032.7  Rx         0341  8  00 00 00 00 00 00 00 00 
  1064)      4032.9  Rx         0241  8  06 00 05 04 05 02 8B A2 
  1065)      4033.2  Rx         0340  8  FF F1 FF C4 00 00 00 01 
  1066)      4033.7  Rx         02C0  8  FF FC FF E3 FF F1 FF C4 
  1067)      4034.0  Rx         03C0  8  00 00 00 00 00 00 00 00 
  1068)      4034.1  Rx         04C0  8  00 00 00 00 00 00 00 78 
  1069)      4034.3  Rx         0240  8  FF FC FF E3 00 00 00 00 
  1070)      4034.4  Rx         04AA  8  D5 AE 00 BF FF F1 FF C4 
  1071)      4034.6  Rx         04AC  8  09 74 07 2C 07 CE 00 00 
  1072)      4034.7  Rx         04BE  8  00 00 00 00 00 00 00 00 
  1073)      4034.9  Rx         04BF  8  FF FC FF E3 00 00 00 00 
  1074)      4035.6  Rx         0540  8  29 74 07 2D 07 CE 00 00 
  1075)      4038.6  Rx         0080  8  00 05 02 01 00 9C 00 04 
  1076)      4039.0  Rx         028C  8  00 00 00 00 00 00 00 00 
  1077)      4039.1  Rx         038C  8  14 2E 00 00 00 00 00 00 
  1078)      4039.2  Rx         048C  8  00 00 00 00 00 00 00 00 
  1079)      4040.4  Rx         0210  8  00 00 00 00 00 00 00 00 
  1080)      4040.4  Rx         0211  8  00 00 00 00 00 00 00 00 
  1081)      4040.5  Rx         0212  8  00 00 00 00 00 00 00 00 
  1082)      4040.5  Rx         0213  8  02 FF 00 00 00 00 00 00 
  1083)      4041.0  Rx         04C2  8  06 05 04 06 00 00 00 00 
  1084)      4041.8  Rx         0540  8  00 08 00 00 00 00 2B 00 
  1085)      4042.5  Rx         0440  8  00 03 00 00 FF FF 00 00 
  1086)      4042.8  Rx         0341  8  00 00 00 00 00 00 00 00 
  1087)      4043.0  Rx         0241  8  06 00 05 04 05 02 8B A2 
  1088)      4043.3  Rx         0340  8  FF F1 FF C4 00 00 00 01 
  1089)      4043.7  Rx         02C0  8  FF FC FF E3 FF F1 FF C4 
  1090)      4043.9  Rx         03C0  8  00 00 00 00 00 00 00 00 
  1091)      4044.2  Rx         04C0  8  00 00 00 00 00 00 00 78 
  1092)      4044.3  Rx         0240  8  FF FC FF E3 00 00 00 00 
  1093)      4044.4  Rx         04AA  8  D5 AE 00 BF FF F1 FF C4 
  1094)      4044.5  Rx         04AC  8  09 74 07 2D 07 CE 00 00 
  1095)      4044.8  Rx         04BE  8  00 00 00 00 00 00 00 00 
  1096)      4044.9  Rx         04BF  8  FF FC FF E3 00 00 00 00 
  1097)      4045.6  Rx         0540  8  1D 97 06 D2 0B 7A 0A 89 
  1098)      4048.7  Rx         0080  8  00 05 02 01 00 9C 00 04 
  1099)      4049.0  Rx         028C  8  00 00 00 00 00 00 00 00 
  1100)      4049.1  Rx         038C  8  14 2E 00 00 00 00 00 00 
  1101)      4049.2  Rx         048C  8  00 00 00 00 00 00 00 00 
  1102)      4050.4  Rx         0210  8  00 00 00 00 00 00 00 00 
  1103)      4050.4  Rx         0211  8  00 00 00 00 00 00 00 00 
  1104)      4050.4  Rx         0212  8  00 00 00 00 00 00 00 00 
  1105)      4050.5  Rx         0213  8  02 FF 00 00 00 00 00 00 
  1106)      4052.0  Rx         04C2  8  06 05 04 06 00 00 00 00 
  1107)      4052.7  Rx         0540  8  00 08 00 00 00 00 2C 00 
  1108)      4052.9  Rx         0341  8  00 00 00 00 00 00 00 00 
  1109)      4053.1  Rx         0241  8  06 00 05 04 05 02 8B A2 
  1110)      4053.4  Rx         0440  8  00 03 00 00 FF FF 00 00 
  1111)      4053.8  Rx         02C0  8  FF FC FF E3 FF F1 FF C4 
  1112)      4053.9  Rx         03C0  8  00 00 00 00 00 00 00 00 
  1113)      4054.1  Rx         04C0  8  00 00 00 00 00 00 00 78 
  1114)      4054.4  Rx         04AA  8  D5 A8 00 C2 FF F1 FF C4 
  1115)      4054.4  Rx         0340  8  FF F1 FF C6 00 00 00 01 
  1116)      4054.6  Rx         04AC  8  09 74 07 2D 07 CE 00 00 
  1117)      4054.7  Rx         04BE  8  00 00 00 00 00 00 00 00 
  1118)      4054.9  Rx         04BF  8  FF FC FF E3 00 00 00 00 
  1119)      4055.8  Rx         0240  8  FF FC FF E3 00 00 00 00 
  1120)      4056.7  Rx         0540  8  29 74 07 2C 07 CE 00 00 
  1121)      4058.7  Rx         0080  8  00 05 02 01 00 9C 00 04 
  1122)      4059.0  Rx         028C  8  00 00 00 00 00 00 00 00 
  1123)      4059.1  Rx         038C  8  14 2E 00 00 00 00 00 00 
  1124)      4059.2  Rx         048C  8  00 00 00 00 00 00 00 00 
  1125)      4060.4  Rx         0210  8  00 00 00 00 00 00 00 00 
  1126)      4060.4  Rx         0211  8  00 00 00 00 00 00 00 00 
  1127)      4060.4  Rx         0212  8  00 00 00 00 00 00 00 00 
  1128)      4060.4  Rx         0213  8  02 FF 00 00 00 00 00 00 
  1129)      4061.0  Rx         04C2  8  06 05 04 06 00 00 00 00 
  1130)      4061.9  Rx         0540  8  00 08 00 00 00 00 2D 00 
  1131)      4062.6  Rx         0440  8  00 03 00 00 FF FF 00 00 
  1132)      4062.9  Rx         0341  8  00 00 00 00 00 00 00 00 
  1133)      4063.1  Rx         0241  8  06 00 05 04 05 02 8B A2 
  1134)      4063.3  Rx         0340  8  FF F1 FF C4 00 00 00 01 
  1135)      4063.7  Rx         02C0  8  FF FC FF E3 FF F1 FF C4 
  1136)      4064.0  Rx         03C0  8  00 00 00 00 00 00 00 00 
  1137)      4064.1  Rx         04C0  8  00 00 00 00 00 00 00 78 
  1138)      4064.3  Rx         04AA  8  D5 B5 00 BF FF F1 FF C6 
  1139)      4064.5  Rx         0240  8  FF F7 FF E3 00 00 00 00 
  1140)      4064.6  Rx         04AC  8  09 74 07 2C 07 CE 00 00 
  1141)      4064.7  Rx         04BE  8  00 00 00 00 00 00 00 00 
  1142)      4064.9  Rx         04BF  8  FF FC FF E3 00 00 00 00 
  1143)      4065.7  Rx         0540  8  1D 97 06 D1 0B 7A 0A 88 
  1144)      4068.7  Rx         0080  8  00 05 02 01 00 9C 00 04 
  1145)      4069.0  Rx         028C  8  00 00 00 00 00 00 00 00 
  1146)      4069.1  Rx         038C  8  14 2E 00 00 00 00 00 00 
  1147)      4069.2  Rx         048C  8  00 00 00 00 00 00 00 00 
  1148)      4070.4  Rx         0210  8  00 00 00 00 00 00 00 00 
  1149)      4070.4  Rx         0211  8  00 00 00 00 00 00 00 00 
  1150)      4070.4  Rx         0212  8  00 00 00 00 00 00 00 00 
  1151)      4070.4  Rx         0213  8  02 FF 00 00 00 00 00 00 
  1152)      4071.1  Rx         04C2  8  06 05 04 06 00 00 00 00 
  1153)      4071.9  Rx         0540  8  00 08 00 00 00 00 2E 00 
  1154)      4072.5  Rx         0341  8  00 00 00 00 00 00 00 00 
  1155)      4072.7  Rx         0241  8  06 00 05 04 05 02 8B A2 
  1156)      4072.8  Rx         0440  8  00 03 00 00 FF FF 00 00 
  1157)      4073.7  Rx         0340  8  FF F5 FF C4 00 00 00 01 
  1158)      4073.8  Rx         02C0  8  FF FC FF E3 FF F1 FF C6 
  1159)      4074.0  Rx         03C0  8  00 00 00 00 00 00 00 00 
  1160)      4074.2  Rx         04C0  8  00 00 00 00 00 00 00 78 
  1161)      4074.4  Rx         04AA  8  D5 B5 00 BF FF F1 FF C4 
  1162)      4074.5  Rx         0240  8  FF FC FF E3 00 00 00 00 
  1163)      4074.6  Rx         04AC  8  09 74 07 2C 07 CE 00 00 
  1164)      4074.8  Rx         04BE  8  00 00 00 00 00 00 00 00 
  1165)      4075.0  Rx         04BF  8  FF F7 FF E3 00 00 00 00 
  1166)      4075.8  Rx         0540  8  29 74 07 2C 07 CE 00 00 
  1167)      4078.7  Rx         0080  8  00 05 02 01 00 9C 00 04 
  1168)      4079.0  Rx         028C  8  00 00 00 00 00 00 00 00 
  1169)      4079.1  Rx         038C  8  14 2E 00 00 00 00 00 00 
  1170)      4079.2  Rx         048C  8  00 00 00 00 00 00 00 00 
  1171)      4080.4  Rx         0210  8  00 00 00 00 00 00 00 00 
  1172)      4080.4  Rx         0211  8  00 00 00 00 00 00 00 00 
  1173)      4080.4  Rx         0212  8  00 00 00 00 00 00 00 00 
  1174)      4080.4  Rx         0213  8  02 FF 00 00 00 00 00 00 
  1175)      4081.2  Rx         04C2  8  06 05 04 06 00 00 00 00 
  1176)      4082.0  Rx         0540  8  00 08 00 00 00 00 2F 00 
  1177)      4082.6  Rx         0341  8  00 00 00 00 00 00 00 00 
  1178)      4082.7  Rx         0440  8  00 03 00 00 FF FF 00 00 
  1179)      4082.8  Rx         0241  8  06 00 05 04 05 02 8B A2 
  1180)      4083.6  Rx         0340  8  FF F1 FF C6 00 00 00 01 
  1181)      4083.7  Rx         02C0  8  FF F7 FF E3 FF F1 FF C4 
  1182)      4084.0  Rx         03C0  8  00 00 00 00 00 00 00 00 
  1183)      4084.1  Rx         04C0  8  00 00 00 00 00 00 00 78 
  1184)      4084.3  Rx         04AA  8  D5 B5 00 BF FF F5 FF C4 
  1185)      4084.5  Rx         0240  8  00 00 FF E2 00 00 00 00 
  1186)      4084.6  Rx         04AC  8  09 74 07 2C 07 CE 00 00 
  1187)      4084.7  Rx         04BE  8  00 00 00 00 00 00 00 00 
  1188)      4084.9  Rx         04BF  8  FF FC FF E3 00 00 00 00 
  1189)      4085.8  Rx         0540  8  1D 97 06 D2 0B 7B 0A 89 
  1190)      4088.7  Rx         0080  8  00 05 02 01 00 9C 00 04 
  1191)      4089.0  Rx         028C  8  00 00 00 00 00 00 00 00 
  1192)      4089.1  Rx         038C  8  14 2E 00 00 00 00 00 00 
  1193)      4089.2  Rx         048C  8  00 00 00 00 00 00 00 00 
  1194)      4090.4  Rx         0210  8  00 00 00 00 00 00 00 00 
  1195)      4090.4  Rx         0211  8  00 00 00 00 00 00 00 00 
  1196)      4090.4  Rx         0212  8  00 00 00 00 00 00 00 00 
  1197)      4090.4  Rx         0213  8  02 FF 00 00 00 00 00 00 
  1198)      4091.2  Rx         04C2  8  06 05 04 06 00 00 00 00 
  1199)      4092.0  Rx         0540  8  00 08 00 00 00 00 30 00 
  1200)      4092.7  Rx         0341  8  00 00 00 00 00 00 00 00 
  1201)      4092.8  Rx         0440  8  00 03 00 00 FF FF 00 00 
  1202)      4092.9  Rx         0241  8  06 00 05 04 05 02 8B A2 
  1203)      4093.6  Rx         0340  8  FF F1 FF C4 00 00 00 01 
  1204)      4093.8  Rx         02C0  8  FF FC FF E3 FF F5 FF C4 
  1205)      4093.9  Rx         03C0  8  00 00 00 00 00 00 00 00 
  1206)      4094.2  Rx         04C0  8  00 00 00 00 00 00 00 78 
  1207)      4094.3  Rx         04AA  8  D5 AE 00 BF FF F1 FF C6 
  1208)      4094.5  Rx         0240  8  FF FC FF E3 00 00 00 00 
  1209)      4094.6  Rx         04AC  8  09 74 07 2C 07 CE 00 00 
  1210)      4094.8  Rx         04BE  8  00 00 00 00 00 00 00 00 
  1211)      4095.0  Rx         04BF  8  00 00 FF E2 00 00 00 00 
  1212)      4095.9  Rx         0540  8  29 74 07 2C 07 CE 00 00 
  1213)      4098.7  Rx         0080  8  00 05 02 01 00 9C 00 04 
  1214)      4099.0  Rx         028C  8  00 00 00 00 00 00 00 00 
  1215)      4099.1  Rx         038C  8  14 2E 00 00 00 00 00 00 
  1216)      4099.2  Rx         048C  8  00 00 00 00 00 00 00 00 
  1217)      4100.4  Rx         0210  8  00 00 00 00 00 00 00 00 
  1218)      4100.4  Rx         0211  8  00 00 00 00 00 00 00 00 
  1219)      4100.4  Rx         0212  8  00 00 00 00 00 00 00 00 
  1220)      4100.4  Rx         0213  8  02 FF 00 00 00 00 00 00 
  1221)      4101.2  Rx         04C2  8  06 05 04 06 00 00 00 00 
  1222)      4102.1  Rx         0540  8  00 08 00 00 00 00 31 00 
  1223)      4102.3  Rx         0341  8  00 00 00 00 00 00 00 00 
  1224)      4102.4  Rx         0241  8  06 00 05 04 05 02 8B A2 
  1225)      4102.8  Rx         0440  8  00 03 00 00 FF FF 00 00 
  1226)      4103.7  Rx         02C0  8  00 00 FF E2 FF F1 FF C6 
  1227)      4103.8  Rx         0340  8  FF F1 FF C4 00 00 00 01 
  1228)      4104.0  Rx         03C0  8  00 00 00 00 00 00 00 00 
  1229)      4104.1  Rx         04C0  8  00 00 00 00 00 00 00 78 
  1230)      4104.3  Rx         04AA  8  D5 AE 00 BF FF F1 FF C4 
  1231)      4104.5  Rx         0240  8  00 00 FF E7 00 00 00 00 
  1232)      4104.6  Rx         04AC  8  09 74 07 2C 07 CE 00 00 
  1233)      4104.8  Rx         04BE  8  00 00 00 00 00 00 00 00 
  1234)      4105.0  Rx         04BF  8  FF FC FF E3 00 00 00 00 
  1235)      4105.9  Rx         0540  8  1D 97 06 D0 0B 7A 0A 89 
  1236)      4108.7  Rx         0080  8  00 05 02 01 00 9C 00 05 
  1237)      4109.0  Rx         028C  8  00 00 00 00 00 00 00 00 
  1238)      4109.1  Rx         038C  8  14 2E 00 00 00 00 00 00 
  1239)      4109.2  Rx         048C  8  00 00 00 00 00 00 00 00 
  1240)      4110.4  Rx         0210  8  00 00 00 00 00 00 00 00 
  1241)      4110.4  Rx         0211  8  00 00 00 00 00 00 00 00 
  1242)      4110.4  Rx         0212  8  00 00 00 00 00 00 00 00 
  1243)      4110.4  Rx         0213  8  02 FF 00 00 00 00 00 00 
  1244)      4111.3  Rx         04C2  8  06 05 04 06 00 00 00 00 
  1245)      4111.9  Rx         0341  8  00 00 00 00 00 00 00 00 
  1246)      4112.0  Rx         0241  8  06 00 05 04 05 02 8B A2 
  1247)      4112.2  Rx         0540  8  00 08 00 00 00 00 32 00 
  1248)      4113.1  Rx         0440  8  00 03 00 00 00 00 00 00 
  1249)      4113.7  Rx         02C0  8  FF FC FF E3 FF F1 FF C4 
  1250)      4113.9  Rx         0340  8  FF F1 FF C4 00 00 00 01 
  1251)      4114.0  Rx         03C0  8  00 00 00 00 00 00 00 00 
  1252)      4114.1  Rx         04C0  8  00 00 00 00 00 00 00 78 
  1253)      4114.3  Rx         04AA  8  D5 B5 00 BF FF F1 FF C4 
  1254)      4114.6  Rx         04AC  8  09 74 07 2C 07 CE 00 00 
  1255)      4114.7  Rx         04BE  8  00 00 00 00 00 00 00 00 
  1256)      4114.9  Rx         04BF  8  00 00 FF E7 00 00 00 00 
  1257)      4115.1  Rx         0240  8  FF FC FF E3 00 00 00 00 
  1258)      4116.2  Rx         0540  8  29 74 07 2C 07 CE 00 00 
  1259)      4118.6  Rx         0080  8  00 05 02 01 00 9C 00 04 
  1260)      4118.9  Rx         028C  8  00 00 00 00 00 00 00 00 
  1261)      4119.1  Rx         038C  8  14 2E 00 00 00 00 00 00 
  1262)      4119.2  Rx         048C  8  00 00 00 00 00 00 00 00 
  1263)      4120.4  Rx         0210  8  00 00 00 00 00 00 00 00 
  1264)      4120.4  Rx         0211  8  00 00 00 00 00 00 00 00 
  1265)      4120.4  Rx         0212  8  00 00 00 00 00 00 00 00 
  1266)      4120.4  Rx         0213  8  02 FF 00 00 00 00 00 00 
  1267)      4120.4  Rx         04C2  8  06 05 04 06 00 00 00 00 
  1268)      4121.0  Rx         0540  8  00 08 00 00 00 00 33 00 
  1269)      4121.9  Rx         0440  8  00 03 00 00 FF FF 00 00 
  1270)      4122.3  Rx         0341  8  00 00 00 00 00 00 00 00 
  1271)      4122.4  Rx         0241  8  06 00 05 04 05 02 8B A2 
  1272)      4122.7  Rx         0340  8  FF F1 FF C4 00 00 00 01 
  1273)      4123.7  Rx         0240  8  00 00 FF E7 00 00 00 00 
  1274)      4123.8  Rx         02C0  8  00 00 FF E7 FF F1 FF C4 
  1275)      4123.9  Rx         0540  8  1D 96 06 D1 0B 7A 0A 89 
  1276)      4124.0  Rx         03C0  8  00 00 00 00 00 00 00 00 
  1277)      4124.2  Rx         04C0  8  00 00 00 00 00 00 00 78 
  1278)      4124.4  Rx         04AA  8  D5 AE 00 BF FF F1 FF C4 
  1279)      4124.6  Rx         04AC  8  09 74 07 2C 07 CE 00 00 
  1280)      4124.8  Rx         04BE  8  00 00 00 00 00 00 00 00 
  1281)      4125.0  Rx         04BF  8  FF FC FF E3 00 00 00 00 
  1282)      4128.7  Rx         0080  8  00 05 02 01 00 9C 00 04 
  1283)      4129.0  Rx         028C  8  00 00 00 00 00 00 00 00 
  1284)      4129.1  Rx         038C  8  14 2E 00 00 00 00 00 00 
  1285)      4129.2  Rx         048C  8  00 00 00 00 00 00 00 00 
  1286)      4130.4  Rx         0210  8  00 00 00 00 00 00 00 00 
  1287)      4130.4  Rx         0211  8  00 00 00 00 00 00 00 00 
  1288)      4130.4  Rx         0212  8  00 00 00 00 00 00 00 00 
  1289)      4130.4  Rx         0213  8  02 FF 00 00 00 00 00 00 
  1290)      4130.4  Rx         04C2  8  06 05 04 06 00 00 00 00 
  1291)      4131.1  Rx         0540  8  00 08 00 00 00 00 34 00 
  1292)      4132.0  Rx         0341  8  00 00 00 00 00 00 00 00 
  1293)      4132.1  Rx         0440  8  00 03 00 00 FF FF 00 00 
  1294)      4132.2  Rx         0241  8  06 00 05 04 05 02 8B A2 
  1295)      4132.6  Rx         0340  8  FF F1 FF C6 00 00 00 01 
  1296)      4133.7  Rx         0240  8  FF FC FF E3 00 00 00 00 
  1297)      4133.8  Rx         02C0  8  FF FC FF E3 FF F1 FF C4 
  1298)      4133.9  Rx         0540  8  29 74 07 2C 07 CE 00 00 
  1299)      4134.1  Rx         03C0  8  00 00 00 00 00 00 00 00 
  1300)      4134.2  Rx         04C0  8  00 00 00 00 00 00 00 78 
  1301)      4134.4  Rx         04AA  8  D5 B5 00 BF FF F1 FF C4 
  1302)      4134.6  Rx         04AC  8  09 74 07 2C 07 CE 00 00 
  1303)      4134.8  Rx         04BE  8  00 00 00 00 00 00 00 00 
  1304)      4135.0  Rx         04BF  8  00 00 FF E7 00 00 00 00 
  1305)      4138.7  Rx         0080  8  00 05 02 01 00 9C 00 04 
  1306)      4139.0  Rx         028C  8  00 00 00 00 00 00 00 00 
  1307)      4139.1  Rx         038C  8  14 2E 00 00 00 00 00 00 
  1308)      4139.2  Rx         048C  8  00 00 00 00 00 00 00 00 
  1309)      4140.4  Rx         0210  8  00 00 00 00 00 00 00 00 
  1310)      4140.4  Rx         0211  8  00 00 00 00 00 00 00 00 
  1311)      4140.4  Rx         0212  8  00 00 00 00 00 00 00 00 
  1312)      4140.4  Rx         0213  8  02 FF 00 00 00 00 00 00 
  1313)      4140.4  Rx         04C2  8  06 05 04 06 00 00 00 00 
  1314)      4141.2  Rx         0540  8  00 08 00 00 00 00 35 00 
  1315)      4141.9  Rx         0440  8  00 03 00 00 FF FF 00 00 
  1316)      4142.5  Rx         0341  8  00 00 00 00 00 00 00 00 
  1317)      4142.6  Rx         0241  8  06 00 05 04 05 02 8B A2 
  1318)      4142.7  Rx         0340  8  FF F1 FF C4 00 00 00 01 
  1319)      4143.7  Rx         0240  8  FF FC FF E8 00 00 00 00 
  1320)      4143.8  Rx         02C0  8  00 00 FF E7 FF F1 FF C4 
  1321)      4143.9  Rx         0540  8  1D 97 06 D1 0B 7A 0A 89 
  1322)      4144.1  Rx         03C0  8  00 00 00 00 00 00 00 00 
  1323)      4144.2  Rx         04C0  8  00 00 00 00 00 00 00 78 
  1324)      4144.4  Rx         04AA  8  D5 AE 00 BF FF F1 FF C6 
  1325)      4144.6  Rx         04AC  8  09 74 07 2C 07 CE 00 00 
  1326)      4144.8  Rx         04BE  8  00 00 00 00 00 00 00 00 
  1327)      4145.0  Rx         04BF  8  FF FC FF E3 00 00 00 00 
  1328)      4148.7  Rx         0080  8  00 05 02 01 00 9C 00 04 
  1329)      4149.0  Rx         028C  8  00 00 00 00 00 00 00 00 
  1330)      4149.1  Rx         038C  8  14 2E 00 00 00 00 00 00 
  1331)      4149.2  Rx         048C  8  00 00 00 00 00 00 00 00 
  1332)      4150.4  Rx         0210  8  00 00 00 00 00 00 00 00 
  1333)      4150.4  Rx         0211  8  00 00 00 00 00 00 00 00 
  1334)      4150.4  Rx         0212  8  00 00 00 00 00 00 00 00 
  1335)      4150.4  Rx         0213  8  02 FF 00 00 00 00 00 00 
  1336)      4150.4  Rx         04C2  8  06 05 04 06 00 00 00 00 
  1337)      4151.2  Rx         0540  8  00 08 00 00 00 00 36 00 
  1338)      4152.0  Rx         0440  8  00 03 00 00 FF FF 00 00 
  1339)      4152.1  Rx         0341  8  00 00 00 00 00 00 00 00 
  1340)      4152.2  Rx         0241  8  06 00 05 04 04 02 8B A2 
  1341)      4152.7  Rx         0340  8  FF ED FF C4 00 00 00 01 
  1342)      4153.7  Rx         0240  8  FF FC FF E3 00 00 00 00 
  1343)      4153.8  Rx         02C0  8  FF FC FF E3 FF F1 FF C6 
  1344)      4153.9  Rx         0540  8  29 74 07 2C 07 CE 00 00 
  1345)      4154.1  Rx         03C0  8  00 00 00 00 00 00 00 00 
  1346)      4154.2  Rx         04C0  8  00 00 00 00 00 00 00 78 
  1347)      4154.4  Rx         04AA  8  D5 AE 00 C2 FF F1 FF C4 
  1348)      4154.6  Rx         04AC  8  09 74 07 2C 07 CE 00 00 
  1349)      4154.8  Rx         04BE  8  00 00 00 00 00 00 00 00 
  1350)      4155.0  Rx         04BF  8  FF FC FF E8 00 00 00 00 
  1351)      4158.7  Rx         0080  8  00 05 02 01 00 9C 00 04 
  1352)      4159.0  Rx         028C  8  00 00 00 00 00 00 00 00 
  1353)      4159.1  Rx         038C  8  14 2E 00 00 00 00 00 00 
  1354)      4159.2  Rx         048C  8  00 00 00 00 00 00 00 00 
  1355)      4160.3  Rx         0210  8  00 00 00 00 00 00 00 00 
  1356)      4160.4  Rx         0211  8  00 00 00 00 00 00 00 00 
  1357)      4160.4  Rx         0212  8  00 00 00 00 00 00 00 00 
  1358)      4160.4  Rx         0213  8  02 FF 00 00 00 00 00 00 
  1359)      4160.4  Rx         04C2  8  06 05 04 06 00 00 00 00 
  1360)      4161.1  Rx         0540  8  00 08 00 00 00 00 37 00 
  1361)      4162.0  Rx         0440  8  00 03 00 00 FF FF 00 00 
  1362)      4162.6  Rx         0341  8  00 00 00 00 00 00 00 00 
  1363)      4162.7  Rx         0241  8  06 00 05 04 04 02 8B A2 
  1364)      4162.9  Rx         0340  8  FF F1 FF C4 00 00 00 01 
  1365)      4163.1  Rx         0240  8  FF FC FF E3 00 00 00 00 
  1366)      4163.7  Rx         02C0  8  FF FC FF E8 FF F1 FF C4 
  1367)      4163.8  Rx         0540  8  1D 97 06 D1 0B 7A 0A 89 
  1368)      4164.0  Rx         03C0  8  00 00 00 00 00 00 00 00 
  1369)      4164.1  Rx         04C0  8  00 00 00 00 00 00 00 78 
  1370)      4164.3  Rx         04AA  8  D5 AE 00 BF FF ED FF C4 
  1371)      4164.5  Rx         04AC  8  09 74 07 2C 07 CE 00 00 
  1372)      4164.7  Rx         04BE  8  00 00 00 00 00 00 00 00 
  1373)      4164.9  Rx         04BF  8  FF FC FF E3 00 00 00 00 
  1374)      4168.7  Rx         0080  8  00 05 02 01 00 9C 00 04 
  1375)      4169.0  Rx         028C  8  00 00 00 00 00 00 00 00 
  1376)      4169.1  Rx         038C  8  14 2E 00 00 00 00 00 00 
  1377)      4169.2  Rx         048C  8  00 00 00 00 00 00 00 00 
  1378)      4170.4  Rx         0210  8  00 00 00 00 00 00 00 00 
  1379)      4170.4  Rx         0211  8  00 00 00 00 00 00 00 00 
  1380)      4170.4  Rx         0212  8  00 00 00 00 00 00 00 00 
  1381)      4170.4  Rx         0213  8  02 FF 00 00 00 00 00 00 
  1382)      4170.4  Rx         04C2  8  06 05 04 06 00 00 00 00 
  1383)      4171.2  Rx         0540  8  00 08 00 00 00 00 38 00 
  1384)      4172.1  Rx         0440  8  00 03 00 00 FF FF 00 00 
  1385)      4172.2  Rx         0341  8  00 00 00 00 00 00 00 00 
  1386)      4172.4  Rx         0241  8  06 00 05 04 05 02 8B A2 
  1387)      4172.8  Rx         0340  8  FF F1 FF C4 00 00 00 01 
  1388)      4173.7  Rx         02C0  8  FF FC FF E3 FF ED FF C4 
  1389)      4173.9  Rx         0240  8  FF F7 FF DE 00 00 00 00 
  1390)      4174.0  Rx         03C0  8  00 00 00 00 00 00 00 00 
  1391)      4174.1  Rx         0540  8  29 74 07 2C 07 CF 00 00 
  1392)      4174.2  Rx         04C0  8  00 00 00 00 00 00 00 78 
  1393)      4174.4  Rx         04AA  8  D5 B5 00 BF FF F1 FF C4 
  1394)      4174.6  Rx         04AC  8  09 74 07 2C 07 CE 00 00 
  1395)      4174.8  Rx         04BE  8  00 00 00 00 00 00 00 00 
  1396)      4175.0  Rx         04BF  8  FF FC FF E3 00 00 00 00 
  1397)      4178.7  Rx         0080  8  00 05 02 01 00 9C 00 04 
  1398)      4179.0  Rx         028C  8  00 00 00 00 00 00 00 00 
  1399)      4179.1  Rx         038C  8  14 2E 00 00 00 00 00 00 
  1400)      4179.2  Rx         048C  8  00 00 00 00 00 00 00 00 
  1401)      4180.4  Rx         0210  8  00 00 00 00 00 00 00 00 
  1402)      4180.4  Rx         0211  8  00 00 00 00 00 00 00 00 
  1403)      4180.4  Rx         0212  8  00 00 00 00 00 00 00 00 
  1404)      4180.4  Rx         0213  8  02 FF 00 00 00 00 00 00 
  1405)      4180.4  Rx         04C2  8  06 05 04 06 00 00 00 00 
  1406)      4181.2  Rx         0540  8  00 08 00 00 00 00 39 00 
  1407)      4182.1  Rx         0440  8  00 03 00 00 FF FF 00 00 
  1408)      4182.7  Rx         0341  8  00 00 00 00 00 00 00 00 
  1409)      4182.9  Rx         0340  8  FF ED FF C6 00 00 00 01 
  1410)      4183.0  Rx         0241  8  06 00 05 04 05 02 8B A2 
  1411)      4183.2  Rx         0240  8  00 00 FF E2 00 00 00 00 
  1412)      4183.7  Rx         02C0  8  FF FC FF E3 FF F1 FF C4 
  1413)      4183.9  Rx         03C0  8  00 00 00 00 00 00 00 00 
  1414)      4184.1  Rx         0540  8  1D 97 06 D2 0B 7A 0A 88 
  1415)      4184.2  Rx         04C0  8  00 00 00 00 00 00 00 78 
  1416)      4184.3  Rx         04AA  8  D5 B5 00 C2 FF F1 FF C4 
  1417)      4184.5  Rx         04AC  8  09 74 07 2C 07 CF 00 00 
  1418)      4184.7  Rx         04BE  8  00 00 00 00 00 00 00 00 
  1419)      4185.0  Rx         04BF  8  FF F7 FF DE 00 00 00 00 
  1420)      4188.7  Rx         0080  8  00 05 02 01 00 9C 00 04 
  1421)      4189.0  Rx         028C  8  00 00 00 00 00 00 00 00 
  1422)      4189.1  Rx         038C  8  14 2E 00 00 00 00 00 00 
  1423)      4189.2  Rx         048C  8  00 00 00 00 00 00 00 00 
  1424)      4190.3  Rx         0210  8  00 00 00 00 00 00 00 00 
  1425)      4190.3  Rx         0211  8  00 00 00 00 00 00 00 00 
  1426)      4190.4  Rx         0212  8  00 00 00 00 00 00 00 00 
  1427)      4190.4  Rx         0213  8  02 FF 00 00 00 00 00 00 
  1428)      4190.4  Rx         04C2  8  06 05 04 06 00 00 00 00 
  1429)      4191.2  Rx         0540  8  00 08 00 00 00 00 3A 00 
  1430)      4192.1  Rx         0440  8  00 03 00 00 FF FF 00 00 
  1431)      4192.4  Rx         0341  8  00 00 00 00 00 00 00 00 
  1432)      4192.5  Rx         0241  8  06 00 05 04 05 02 8B A2 
  1433)      4192.8  Rx         0340  8  FF F1 FF C4 00 00 00 01 
  1434)      4193.7  Rx         02C0  8  FF F7 FF DE FF F1 FF C4 
  1435)      4193.9  Rx         0240  8  FF FC FF E3 00 00 00 00 
  1436)      4194.0  Rx         03C0  8  00 00 00 00 00 00 00 00 
  1437)      4194.2  Rx         04C0  8  00 00 00 00 00 00 00 78 
  1438)      4194.3  Rx         0540  8  29 74 07 2C 07 CE 00 00 
  1439)      4194.4  Rx         04AA  8  D5 AE 00 BF FF ED FF C6 
  1440)      4194.6  Rx         04AC  8  09 74 07 2C 07 CF 00 00 
  1441)      4194.7  Rx         04BE  8  00 00 00 00 00 00 00 00 
  1442)      4194.9  Rx         04BF  8  00 00 FF E2 00 00 00 00 
  1443)      4198.7  Rx         0080  8  00 05 02 01 00 9C 00 04 
  1444)      4199.0  Rx         028C  8  00 00 00 00 00 00 00 00 
  1445)      4199.1  Rx         038C  8  14 2E 00 00 00 00 00 00 
  1446)      4199.2  Rx         048C  8  00 00 00 00 00 00 00 00 
  1447)      4200.4  Rx         0210  8  00 00 00 00 00 00 00 00 
  1448)      4200.4  Rx         0211  8  00 00 00 00 00 00 00 00 
  1449)      4200.4  Rx         0212  8  00 00 00 00 00 00 00 00 
  1450)      4200.4  Rx         0213  8  02 FF 00 00 00 00 00 00 
  1451)      4200.4  Rx         04C2  8  06 05 04 06 00 00 00 00 
  1452)      4201.3  Rx         0540  8  00 08 00 00 00 00 3B 00 
  1453)      4202.2  Rx         0440  8  00 04 00 00 FF FF 00 00 
  1454)      4202.9  Rx         0340  8  FF F1 FF C4 00 00 00 01 
  1455)      4203.0  Rx         0341  8  00 00 00 00 00 00 00 00 
  1456)      4203.2  Rx         0240  8  00 00 FF E7 00 00 00 00 
  1457)      4203.3  Rx         0241  8  06 00 05 04 05 02 8B A2 
  1458)      4203.4  Rx         0540  8  1D 96 06 D0 0B 7B 0A 89 
  1459)      4203.7  Rx         02C0  8  00 00 FF E2 FF ED FF C6 
  1460)      4203.9  Rx         03C0  8  00 00 00 00 00 00 00 00 
  1461)      4204.2  Rx         04C0  8  00 00 00 00 00 00 00 78 
  1462)      4204.3  Rx         04AA  8  D5 AE 00 BF FF F1 FF C4 
  1463)      4204.5  Rx         04AC  8  09 74 07 2C 07 CE 00 00 
  1464)      4204.7  Rx         04BE  8  00 00 00 00 00 00 00 00 
  1465)      4204.9  Rx         04BF  8  FF FC FF E3 00 00 00 00 
  1466)      4208.7  Rx         0080  8  00 05 02 01 00 9C 00 05 
  1467)      4209.0  Rx         028C  8  00 00 00 00 00 00 00 00 
  1468)      4209.1  Rx         038C  8  14 2E 00 00 00 00 00 00 
  1469)      4209.2  Rx         048C  8  00 00 00 00 00 00 00 00 
  1470)      4210.3  Rx         0210  8  00 00 00 00 00 00 00 00 
  1471)      4210.3  Rx         0211  8  00 00 00 00 00 00 00 00 
  1472)      4210.3  Rx         0212  8  00 00 00 00 00 00 00 00 
  1473)      4210.3  Rx         0213  8  02 FF 00 00 00 00 00 00 
  1474)      4210.4  Rx         04C2  8  06 05 04 06 00 00 00 00 
  1475)      4211.3  Rx         0540  8  00 08 00 00 00 00 3C 00 
  1476)      4212.2  Rx         0440  8  00 03 00 00 FF FF 00 00 
  1477)      4212.9  Rx         0340  8  FF F1 FF C4 00 00 00 01 
  1478)      4213.0  Rx         0341  8  00 00 00 00 00 00 00 00 
  1479)      4213.2  Rx         0240  8  00 00 FF E7 00 00 00 00 
  1480)      4213.3  Rx         0241  8  06 00 05 04 05 02 8B A2 
  1481)      4213.4  Rx         0540  8  29 73 07 2C 07 CE 00 00 
  1482)      4213.8  Rx         02C0  8  FF FC FF E3 FF F1 FF C4 
  1483)      4213.9  Rx         03C0  8  00 00 00 00 00 00 00 00 
  1484)      4214.1  Rx         04C0  8  00 00 00 00 00 00 00 78 
  1485)      4214.3  Rx         04AA  8  D5 AE 00 C2 FF F1 FF C4 
  1486)      4214.5  Rx         04AC  8  09 74 07 2C 07 CE 00 00 
  1487)      4214.7  Rx         04BE  8  00 00 00 00 00 00 00 00 
  1488)      4214.9  Rx         04BF  8  00 00 FF E7 00 00 00 00 
  1489)      4218.7  Rx         0080  8  00 05 02 01 00 9C 00 04 
  1490)      4219.0  Rx         028C  8  00 00 00 00 00 00 00 00 
  1491)      4219.1  Rx         038C  8  14 2E 00 00 00 00 00 00 
  1492)      4219.2  Rx         048C  8  00 00 00 00 00 00 00 00 
  1493)      4220.3  Rx         0210  8  00 00 00 00 00 00 00 00 
  1494)      4220.3  Rx         0211  8  00 00 00 00 00 00 00 00 
  1495)      4220.3  Rx         0212  8  00 00 00 00 00 00 00 00 
  1496)      4220.3  Rx         0213  8  02 FF 00 00 00 00 00 00 
  1497)      4220.4  Rx         04C2  8  06 05 04 06 00 00 00 00 
  1498)      4221.3  Rx         0540  8  00 08 00 00 00 00 3D 00 
  1499)      4222.2  Rx         0440  8  00 03 00 00 FF FF 00 00 
  1500)      4223.0  Rx         0340  8  FF F1 FF C6 00 00 00 01 
  1501)      4223.1  Rx         0341  8  00 00 00 00 00 00 00 00 
  1502)      4223.2  Rx         0240  8  FF FC FF E3 00 00 00 00 
  1503)      4223.4  Rx         0241  8  06 00 05 04 05 02 8B A2 
  1504)      4223.5  Rx         0540  8  1D 97 06 D1 0B 7A 0A 89 
  1505)      4223.7  Rx         02C0  8  00 00 FF E7 FF F1 FF C4 
  1506)      4223.9  Rx         03C0  8  00 00 00 00 00 00 00 00 
  1507)      4224.1  Rx         04C0  8  00 00 00 00 00 00 00 78 
  1508)      4224.3  Rx         04AA  8  D5 B5 00 C2 FF F1 FF C4 
  1509)      4224.5  Rx         04AC  8  09 73 07 2C 07 CE 00 00 
  1510)      4224.8  Rx         04BE  8  00 00 00 00 00 00 00 00 
  1511)      4224.9  Rx         04BF  8  00 00 FF E7 00 00 00 00 
  1512)      4228.7  Rx         0080  8  00 05 02 01 00 9C 00 04 
  1513)      4229.0  Rx         028C  8  00 00 00 00 00 00 00 00 
  1514)      4229.1  Rx         038C  8  14 2E 00 00 00 00 00 00 
  1515)      4229.2  Rx         048C  8  00 00 00 00 00 00 00 00 
  1516)      4230.4  Rx         0210  8  00 00 00 00 00 00 00 00 
  1517)      4230.4  Rx         0211  8  00 00 00 00 00 00 00 00 
  1518)      4230.4  Rx         0212  8  00 00 00 00 00 00 00 00 
