;$FILEVERSION=1.1
;$STARTTIME=44249.5320964236
;
;   Start time: 2/22/2021 12:46:13.131.0
;   Generated by PCAN-View v4.3.3.610
;
;   Message Number
;   |         Time Offset (ms)
;   |         |        Type
;   |         |        |        ID (hex)
;   |         |        |        |     Data Length
;   |         |        |        |     |   Data Bytes (hex) ...
;   |         |        |        |     |   |
;---+--   ----+----  --+--  ----+---  +  -+ -- -- -- -- -- -- --
     1)      4361.3  Rx     01800A00  0  
     2)      4366.7  Rx     01800A00  0  
     3)      4372.1  Rx     01A00A00  0  
     4)      4377.4  Rx     01A00A00  0  
     5)      4382.8  Rx     00800A00  0  
     6)      4388.2  Rx     00800A00  0  
     7)      4393.5  Rx     00600A00  0  
     8)      4398.9  Rx     00600A00  0  
     9)      4404.3  Rx     00C00A00  0  
    10)      4409.7  Rx     00C00A00  0  
    11)      4415.0  Rx     00A00A00  0  
    12)      4420.4  Rx     00A00A00  0  
    13)      4425.8  Rx     00400A00  0  
    14)      4431.2  Rx     00400A00  0  
    15)      4436.5  Rx     00200A00  0  
    16)      4441.9  Rx     00200A00  0  
    17)      4447.2  Rx     01000A00  0  
    18)      4452.6  Rx     01000A00  0  
    19)      4458.0  Rx     01200A00  0  
    20)      4463.4  Rx     01200A00  0  
    21)      4468.8  Rx     01400A00  0  
    22)      4474.1  Rx     01400A00  0  
    23)      4479.5  Rx     01600A00  0  
    24)      4484.8  Rx     01600A00  0  
    25)      4490.2  Rx     03000A00  0  
    26)      4495.6  Rx     03000A00  0  
    27)      4501.0  Rx     03200A00  0  
    28)      4506.3  Rx     03200A00  0  
    29)      4789.1  Rx         0343  8  00 00 00 01 FF FF FF FF 
    30)      4789.3  Rx         0343  8  00 06 FF FF FF FF FF FF 
    31)      4789.6  Rx         0540  8  30 00 00 01 FF FF FF FF 
    32)      4789.7  Rx         0343  8  00 0C FF FF FF FF FF FF 
    33)      4789.9  Rx         0540  8  30 06 FF FF FF FF FF FF 
    34)      4790.1  Rx         0343  8  00 12 FF FF 00 07 00 01 
    35)      4790.3  Rx         0540  8  30 0C FF FF FF FF FF FF 
    36)      4790.5  Rx         0343  8  00 18 03 E8 00 00 00 15 
    37)      4790.6  Rx         0540  8  30 12 FF FF 00 07 00 01 
    38)      4790.9  Rx         0343  8  00 1E EC CC FF FF 0D 9D 
    39)      4791.0  Rx         0540  8  30 18 03 E8 00 00 00 15 
    40)      4791.3  Rx         0343  8  00 24 00 00 19 00 EC CC 
    41)      4791.4  Rx         0540  8  30 1E EC CC FF FF 0D 9D 
    42)      4791.7  Rx         0343  8  00 2A FF FF 0B D6 2D 00 
    43)      4791.8  Rx         0540  8  30 24 00 00 19 00 EC CC 
    44)      4792.1  Rx         0343  8  00 30 D3 00 FE A5 FF FF 
    45)      4792.2  Rx         0540  8  30 2A FF FF 0B D6 2D 00 
    46)      4792.5  Rx         0343  8  00 36 08 B8 F9 C0 06 40 
    47)      4792.6  Rx         0540  8  30 30 D3 00 FE A5 FF FF 
    48)      4792.9  Rx         0343  8  00 3C 00 0A 01 6B 00 00 
    49)      4793.0  Rx         0540  8  30 36 08 B8 F9 C0 06 40 
    50)      4793.3  Rx         0343  8  00 42 09 42 F9 C0 06 40 
    51)      4793.4  Rx         0540  8  30 3C 00 0A 01 6B 00 00 
    52)      4793.7  Rx         0343  8  00 48 00 0A 00 00 00 00 
    53)      4793.8  Rx         0540  8  30 42 09 42 F9 C0 06 40 
    54)      4794.1  Rx         0343  8  00 4E 00 00 00 00 00 00 
    55)      4794.3  Rx         0540  8  30 48 00 0A 00 00 00 00 
    56)      4794.5  Rx         0343  8  00 54 00 00 00 00 12 80 
    57)      4794.6  Rx         0540  8  30 4E 00 00 00 00 00 00 
    58)      4794.9  Rx         0343  8  00 5A 00 00 00 00 00 00 
    59)      4795.0  Rx         0540  8  30 54 00 00 00 00 12 80 
    60)      4795.3  Rx         0343  8  00 60 00 00 00 00 10 52 
    61)      4795.4  Rx         0540  8  30 5A 00 00 00 00 00 00 
    62)      4795.7  Rx         0343  8  00 66 00 00 04 CF 00 00 
    63)      4795.8  Rx         0540  8  30 60 00 00 00 00 10 52 
    64)      4796.1  Rx         0343  8  00 6C 00 00 F7 54 FF FF 
    65)      4796.2  Rx         0540  8  30 66 00 00 04 CF 00 00 
    66)      4796.5  Rx         0343  8  00 72 07 B5 00 00 00 00 
    67)      4796.6  Rx         0540  8  30 6C 00 00 F7 54 FF FF 
    68)      4796.9  Rx         0343  8  00 78 00 0A 00 00 00 00 
    69)      4797.0  Rx         0540  8  30 72 07 B5 00 00 00 00 
    70)      4797.3  Rx         0343  8  00 7E 00 00 00 00 09 9A 
    71)      4797.5  Rx         0540  8  30 78 00 0A 00 00 00 00 
    72)      4797.7  Rx         0343  8  00 84 00 00 02 B6 00 00 
    73)      4797.8  Rx         0540  8  30 7E 00 00 00 00 09 9A 
    74)      4798.1  Rx         0343  8  00 8A 00 00 00 00 00 00 
    75)      4798.2  Rx         0540  8  30 84 00 00 02 B6 00 00 
    76)      4798.5  Rx         0343  8  00 90 00 00 00 00 00 00 
    77)      4798.6  Rx         0540  8  30 8A 00 00 00 00 00 00 
    78)      4798.9  Rx         0343  8  00 96 00 00 00 00 30 A0 
    79)      4799.0  Rx         0540  8  30 90 00 00 00 00 00 00 
    80)      4799.8  Rx         0540  8  30 96 00 00 00 00 30 A0 
    81)      4808.6  Rx         0080  8  00 01 02 01 00 A0 00 00 
    82)      4808.9  Rx         028C  8  00 00 00 00 00 00 00 00 
    83)      4809.0  Rx         038C  8  14 2E 00 00 00 00 00 00 
    84)      4809.1  Rx         048C  8  00 00 00 00 00 00 00 00 
    85)      4809.3  Rx         0618  8  40 20 01 16 00 00 00 00 
    86)      4810.5  Rx         0210  8  00 00 00 00 00 00 00 00 
    87)      4810.6  Rx         0211  8  00 00 00 00 00 00 00 00 
    88)      4810.6  Rx         0212  8  00 00 00 00 00 00 00 00 
    89)      4810.6  Rx         0213  8  02 FF 00 00 00 00 00 00 
    90)      4810.6  Rx         01BD  8  AC 00 00 00 3F 57 0F 91 
    91)      4810.8  Rx         04C2  8  03 07 00 17 00 00 00 00 
    92)      4811.5  Rx         0540  8  00 08 00 00 00 00 00 00 
    93)      4811.7  Rx         0440  8  FF FF FF FC 00 00 FF FA 
    94)      4812.4  Rx         0340  8  00 10 00 13 00 00 00 00 
    95)      4812.6  Rx         0341  8  00 00 00 00 00 00 00 01 
    96)      4812.6  Rx         0240  8  00 18 FF E9 00 00 00 00 
    97)      4812.8  Rx         0241  8  00 00 00 00 00 1F 8B A2 
    98)      4813.5  Rx         0540  8  28 11 08 34 08 0D 00 00 
    99)      4813.7  Rx         02C0  8  00 00 00 00 00 00 00 00 
   100)      4813.9  Rx         03C0  8  00 00 00 00 00 00 00 00 
   101)      4814.1  Rx         04C0  8  00 00 00 00 00 00 00 00 
   102)      4814.3  Rx         04AA  8  00 29 00 90 00 00 00 00 
   103)      4814.5  Rx         04AC  8  00 00 00 00 00 00 00 00 
   104)      4814.7  Rx         04BE  8  00 00 00 00 00 00 00 00 
   105)      4814.9  Rx         04BF  8  00 00 00 00 00 00 00 00 
   106)      4818.6  Rx         0080  8  00 01 02 01 00 9C 00 00 
   107)      4818.9  Rx         028C  8  00 00 00 00 00 00 00 00 
   108)      4819.0  Rx         038C  8  14 2E 00 00 00 00 00 00 
   109)      4819.2  Rx         048C  8  00 00 00 00 00 00 00 00 
   110)      4820.5  Rx         0210  8  00 00 00 00 00 00 00 00 
   111)      4820.5  Rx         0211  8  00 00 00 00 00 00 00 00 
   112)      4820.5  Rx         0212  8  00 00 00 00 00 00 00 00 
   113)      4820.5  Rx         0213  8  02 FF 00 00 00 00 00 00 
   114)      4820.5  Rx         01BD  8  AD 00 0B 8E 11 20 00 00 
   115)      4820.8  Rx         04C2  8  03 07 00 17 00 00 00 00 
   116)      4821.5  Rx         0540  8  00 08 00 00 00 00 01 00 
   117)      4821.6  Rx         0440  8  FF FF FF FD 00 00 FF FA 
   118)      4822.4  Rx         0340  8  00 14 00 11 00 00 00 00 
   119)      4822.5  Rx         0240  8  00 1D FF EE 00 00 00 00 
   120)      4822.8  Rx         0540  8  1D 98 07 30 04 D4 02 BE 
   121)      4823.1  Rx         0341  8  00 00 00 00 00 00 00 01 
   122)      4823.3  Rx         0241  8  00 00 00 00 00 1F 8B A2 
   123)      4823.7  Rx         02C0  8  00 00 00 00 00 00 00 00 
   124)      4823.9  Rx         03C0  8  00 00 00 00 00 00 00 00 
   125)      4824.1  Rx         04C0  8  00 00 00 00 00 00 00 78 
   126)      4824.3  Rx         04AA  8  00 22 00 8D 00 10 00 13 
   127)      4824.5  Rx         04AC  8  08 11 08 34 08 0D 00 00 
   128)      4824.7  Rx         04BE  8  00 00 00 00 00 00 00 00 
   129)      4824.9  Rx         04BF  8  00 18 FF E9 00 00 00 00 
   130)      4828.6  Rx         0080  8  00 01 02 01 00 9C 00 00 
   131)      4828.9  Rx         028C  8  00 00 00 00 00 00 00 00 
   132)      4829.0  Rx         038C  8  14 2E 00 00 00 00 00 00 
   133)      4829.2  Rx         048C  8  00 00 00 00 00 00 00 00 
   134)      4830.5  Rx         0210  8  00 00 00 00 00 00 00 00 
   135)      4830.5  Rx         0211  8  00 00 00 00 00 00 00 00 
   136)      4830.5  Rx         0212  8  00 00 00 00 00 00 00 00 
   137)      4830.5  Rx         0213  8  02 FF 00 00 00 00 00 00 
   138)      4831.5  Rx         04C2  8  03 07 00 17 00 00 00 00 
   139)      4831.7  Rx         0540  8  00 08 00 00 00 00 02 00 
   140)      4832.2  Rx         0341  8  00 00 00 00 00 00 00 01 
   141)      4832.4  Rx         0241  8  00 00 00 00 00 02 8B A2 
   142)      4833.7  Rx         02C0  8  00 18 FF E9 00 10 00 13 
   143)      4833.9  Rx         03C0  8  00 00 00 00 00 00 00 00 
   144)      4834.1  Rx         04C0  8  00 00 00 00 00 00 00 78 
   145)      4834.3  Rx         04AA  8  00 29 00 8D 00 14 00 11 
   146)      4834.5  Rx         04AC  8  08 11 08 34 08 0D 00 00 
   147)      4834.7  Rx         04BE  8  00 00 00 00 00 00 00 00 
   148)      4834.9  Rx         04BF  8  00 1D FF EE 00 00 00 00 
   149)      4838.6  Rx         0080  8  00 05 02 01 00 9C 00 00 
   150)      4838.9  Rx         028C  8  00 00 00 00 00 00 00 00 
   151)      4839.0  Rx         038C  8  14 2E 00 00 00 00 00 00 
   152)      4839.1  Rx         048C  8  00 00 00 00 00 00 00 00 
   153)      4839.3  Rx         0620  8  40 20 01 16 00 00 00 00 
   154)      4840.4  Rx         0210  8  00 00 00 00 00 00 00 00 
   155)      4840.4  Rx         0211  8  00 00 00 00 00 00 00 00 
   156)      4840.4  Rx         0212  8  00 00 00 00 00 00 00 00 
   157)      4840.4  Rx         0213  8  02 FF 00 00 00 00 00 00 
   158)      4841.8  Rx         0341  8  00 00 00 00 00 00 00 01 
   159)      4842.0  Rx         0241  8  02 00 00 00 09 02 8B A2 
   160)      4843.7  Rx         02C0  8  00 1D FF EE 00 14 00 11 
   161)      4843.9  Rx         03C0  8  00 00 00 00 00 00 00 00 
   162)      4844.1  Rx         04C0  8  00 00 00 00 00 00 00 78 
   163)      4844.3  Rx         04AA  8  00 22 00 90 00 14 00 11 
   164)      4844.5  Rx         04AC  8  08 11 08 34 08 0D 00 00 
   165)      4844.7  Rx         04BE  8  00 00 00 00 00 00 00 00 
   166)      4844.9  Rx         04BF  8  00 1D FF EE 00 00 00 00 
   167)      4848.6  Rx         0080  8  00 05 02 01 00 9C 00 00 
   168)      4848.9  Rx         028C  8  00 00 00 00 00 00 00 00 
   169)      4849.0  Rx         038C  8  14 2E 00 00 00 00 00 00 
   170)      4849.2  Rx         048C  8  00 00 00 00 00 00 00 00 
   171)      4850.5  Rx         0210  8  00 00 00 00 00 00 00 00 
   172)      4850.5  Rx         0211  8  00 00 00 00 00 00 00 00 
   173)      4850.5  Rx         0212  8  00 00 00 00 00 00 00 00 
   174)      4850.5  Rx         0213  8  02 FF 00 00 00 00 00 00 
   175)      4852.2  Rx         0341  8  00 00 00 00 00 00 00 01 
   176)      4852.4  Rx         0241  8  00 00 00 00 00 02 8B A2 
   177)      4853.7  Rx         02C0  8  00 1D FF EE 00 14 00 11 
   178)      4853.9  Rx         03C0  8  00 00 00 00 00 00 00 00 
   179)      4854.1  Rx         04C0  8  00 00 00 00 00 00 00 78 
   180)      4854.3  Rx         04AA  8  00 22 00 8A 00 14 00 11 
   181)      4854.5  Rx         04AC  8  08 11 08 34 08 0D 00 00 
   182)      4854.7  Rx         04BE  8  00 00 00 00 00 00 00 00 
   183)      4854.9  Rx         04BF  8  00 1D FF EE 00 00 00 00 
   184)      4858.6  Rx         0080  8  00 05 02 01 00 9C 00 00 
   185)      4858.9  Rx         028C  8  00 00 00 00 00 00 00 00 
   186)      4859.0  Rx         038C  8  14 2E 00 00 00 00 00 00 
   187)      4859.1  Rx         048C  8  00 00 00 00 00 00 00 00 
   188)      4860.4  Rx         0210  8  00 00 00 00 00 00 00 00 
   189)      4860.4  Rx         0211  8  00 00 00 00 00 00 00 00 
   190)      4860.4  Rx         0212  8  00 00 00 00 00 00 00 00 
   191)      4860.4  Rx         0213  8  02 FF 00 00 00 00 00 00 
   192)      4861.9  Rx         0341  8  00 00 00 00 00 00 00 01 
   193)      4862.0  Rx         0241  8  00 00 00 00 03 02 8B A2 
   194)      4863.7  Rx         02C0  8  00 1D FF EE 00 14 00 11 
   195)      4863.9  Rx         03C0  8  00 00 00 00 00 00 00 00 
   196)      4864.1  Rx         04C0  8  00 00 00 00 00 00 00 78 
   197)      4864.3  Rx         04AA  8  00 29 00 8D 00 14 00 11 
   198)      4864.5  Rx         04AC  8  08 11 08 34 08 0D 00 00 
   199)      4864.7  Rx         04BE  8  00 00 00 00 00 00 00 00 
   200)      4864.9  Rx         04BF  8  00 1D FF EE 00 00 00 00 
   201)      4868.6  Rx         0080  8  00 05 02 01 00 9C 00 00 
   202)      4868.9  Rx         028C  8  00 00 00 00 00 00 00 00 
   203)      4869.0  Rx         038C  8  14 2E 00 00 00 00 00 00 
   204)      4869.1  Rx         048C  8  00 00 00 00 00 00 00 00 
   205)      4869.3  Rx         0624  8  40 20 01 16 00 00 00 00 
   206)      4870.4  Rx         0210  8  00 00 00 00 00 00 00 00 
   207)      4870.4  Rx         0211  8  00 00 00 00 00 00 00 00 
   208)      4870.4  Rx         0212  8  00 00 00 00 00 00 00 00 
   209)      4870.5  Rx         0213  8  02 FF 00 00 00 00 00 00 
   210)      4872.4  Rx         0341  8  00 00 00 00 00 00 00 01 
   211)      4872.5  Rx         0241  8  00 00 00 00 02 02 8B A2 
   212)      4873.7  Rx         02C0  8  00 1D FF EE 00 14 00 11 
   213)      4873.9  Rx         03C0  8  00 00 00 00 00 00 00 00 
   214)      4874.1  Rx         04C0  8  00 00 00 00 00 00 00 78 
   215)      4874.2  Rx         04AA  8  00 22 00 90 00 14 00 11 
   216)      4874.5  Rx         04AC  8  08 11 08 34 08 0D 00 00 
   217)      4874.7  Rx         04BE  8  00 00 00 00 00 00 00 00 
   218)      4874.9  Rx         04BF  8  00 1D FF EE 00 00 00 00 
   219)      4878.6  Rx         0080  8  00 05 02 01 00 9C 00 00 
   220)      4878.9  Rx         028C  8  00 00 00 00 00 00 00 00 
   221)      4879.0  Rx         038C  8  14 2E 00 00 00 00 00 00 
   222)      4879.2  Rx         048C  8  00 00 00 00 00 00 00 00 
   223)      4880.4  Rx         0210  8  00 00 00 00 00 00 00 00 
   224)      4880.4  Rx         0211  8  00 00 00 00 00 00 00 00 
   225)      4880.5  Rx         0212  8  00 00 00 00 00 00 00 00 
   226)      4880.5  Rx         0213  8  02 FF 00 00 00 00 00 00 
   227)      4882.1  Rx         0341  8  00 00 00 00 00 00 00 01 
   228)      4882.2  Rx         0241  8  00 00 00 00 02 02 8B A2 
   229)      4883.7  Rx         02C0  8  00 1D FF EE 00 14 00 11 
   230)      4883.9  Rx         03C0  8  00 00 00 00 00 00 00 00 
   231)      4884.1  Rx         04C0  8  00 00 00 00 00 00 00 78 
   232)      4884.3  Rx         04AA  8  00 29 00 8D 00 14 00 11 
   233)      4884.4  Rx         04AC  8  08 11 08 34 08 0D 00 00 
   234)      4884.7  Rx         04BE  8  00 00 00 00 00 00 00 00 
   235)      4884.9  Rx         04BF  8  00 1D FF EE 00 00 00 00 
   236)      4888.6  Rx         0080  8  00 05 02 01 00 9C 00 00 
   237)      4888.9  Rx         028C  8  00 00 00 00 00 00 00 00 
   238)      4889.0  Rx         038C  8  14 2E 00 00 00 00 00 00 
   239)      4889.1  Rx         048C  8  00 00 00 00 00 00 00 00 
   240)      4890.4  Rx         0210  8  00 00 00 00 00 00 00 00 
   241)      4890.4  Rx         0211  8  00 00 00 00 00 00 00 00 
   242)      4890.5  Rx         0212  8  00 00 00 00 00 00 00 00 
   243)      4890.5  Rx         0213  8  02 FF 00 00 00 00 00 00 
   244)      4892.5  Rx         0341  8  00 00 00 00 00 00 00 01 
   245)      4892.7  Rx         0241  8  00 00 00 00 02 02 8B A2 
   246)      4893.7  Rx         02C0  8  00 1D FF EE 00 14 00 11 
   247)      4893.9  Rx         03C0  8  00 00 00 00 00 00 00 00 
   248)      4894.1  Rx         04C0  8  00 00 00 00 00 00 00 78 
   249)      4894.3  Rx         04AA  8  00 22 00 90 00 14 00 11 
   250)      4894.5  Rx         04AC  8  08 11 08 34 08 0D 00 00 
   251)      4894.7  Rx         04BE  8  00 00 00 00 00 00 00 00 
   252)      4894.9  Rx         04BF  8  00 1D FF EE 00 00 00 00 
   253)      4898.6  Rx         0080  8  00 05 02 01 00 9C 00 00 
   254)      4898.9  Rx         028C  8  00 00 00 00 00 00 00 00 
   255)      4899.0  Rx         038C  8  14 2E 00 00 00 00 00 00 
   256)      4899.2  Rx         048C  8  00 00 00 00 00 00 00 00 
   257)      4900.5  Rx         0210  8  00 00 00 00 00 00 00 00 
   258)      4900.5  Rx         0211  8  00 00 00 00 00 00 00 00 
   259)      4900.5  Rx         0212  8  00 00 00 00 00 00 00 00 
   260)      4900.5  Rx         0213  8  02 FF 00 00 00 00 00 00 
   261)      4902.2  Rx         0341  8  00 00 00 00 00 00 00 01 
   262)      4902.3  Rx         0241  8  00 00 00 00 02 02 8B A2 
   263)      4903.6  Rx         02C0  8  00 1D FF EE 00 14 00 11 
   264)      4903.9  Rx         03C0  8  00 00 00 00 00 00 00 00 
   265)      4904.1  Rx         04C0  8  00 00 00 00 00 00 00 78 
   266)      4904.2  Rx         04AA  8  00 29 00 8D 00 14 00 11 
   267)      4904.5  Rx         04AC  8  08 11 08 34 08 0D 00 00 
   268)      4904.7  Rx         04BE  8  00 00 00 00 00 00 00 00 
   269)      4904.9  Rx         04BF  8  00 1D FF EE 00 00 00 00 
   270)      4908.6  Rx         0080  8  00 05 02 01 00 9C 00 01 
   271)      4908.9  Rx         028C  8  00 00 00 00 00 00 00 00 
   272)      4909.0  Rx         038C  8  14 2E 00 00 00 00 00 00 
   273)      4909.2  Rx         048C  8  00 00 00 00 00 00 00 00 
   274)      4910.4  Rx         0210  8  00 00 00 00 00 00 00 00 
   275)      4910.4  Rx         0211  8  00 00 00 00 00 00 00 00 
   276)      4910.4  Rx         0212  8  00 00 00 00 00 00 00 00 
   277)      4910.4  Rx         0213  8  02 FF 00 00 00 00 00 00 
   278)      4912.7  Rx         0341  8  00 00 00 00 00 00 00 01 
   279)      4912.8  Rx         0241  8  00 00 00 00 02 02 8B A2 
   280)      4913.7  Rx         02C0  8  00 1D FF EE 00 14 00 11 
   281)      4913.9  Rx         03C0  8  00 00 00 00 00 00 00 00 
   282)      4914.1  Rx         04C0  8  00 00 00 00 00 00 00 78 
   283)      4914.3  Rx         04AA  8  00 29 00 90 00 14 00 11 
   284)      4914.5  Rx         04AC  8  08 11 08 34 08 0D 00 00 
   285)      4914.7  Rx         04BE  8  00 00 00 00 00 00 00 00 
   286)      4914.9  Rx         04BF  8  00 1D FF EE 00 00 00 00 
   287)      4918.6  Rx         0080  8  00 05 02 01 00 9D 00 00 
   288)      4918.9  Rx         028C  8  00 00 00 00 00 00 00 00 
   289)      4919.0  Rx         038C  8  14 2E 00 00 00 00 00 00 
   290)      4919.1  Rx         048C  8  00 00 00 00 00 00 00 00 
   291)      4920.4  Rx         0210  8  00 00 00 00 00 00 00 00 
   292)      4920.4  Rx         0211  8  00 00 00 00 00 00 00 00 
   293)      4920.4  Rx         0212  8  00 00 00 00 00 00 00 00 
   294)      4920.4  Rx         0213  8  02 FF 00 00 00 00 00 00 
   295)      4922.3  Rx         0341  8  00 00 00 00 00 00 00 01 
   296)      4922.5  Rx         0241  8  00 00 00 00 02 02 8B A2 
   297)      4923.7  Rx         02C0  8  00 1D FF EE 00 14 00 11 
   298)      4923.9  Rx         03C0  8  00 00 00 00 00 00 00 00 
   299)      4924.1  Rx         04C0  8  00 00 00 00 00 00 00 78 
   300)      4924.3  Rx         04AA  8  00 29 00 90 00 14 00 11 
   301)      4924.5  Rx         04AC  8  08 11 08 34 08 0D 00 00 
   302)      4924.7  Rx         04BE  8  00 00 00 00 00 00 00 00 
   303)      4924.9  Rx         04BF  8  00 1D FF EE 00 00 00 00 
   304)      4928.6  Rx         0080  8  00 05 00 0D 00 9D 00 00 
   305)      4928.9  Rx         028C  8  00 00 00 00 00 00 00 00 
   306)      4929.0  Rx         038C  8  14 2E 00 00 00 00 00 00 
   307)      4929.2  Rx         048C  8  00 00 00 00 00 00 00 00 
   308)      4930.4  Rx         0210  8  00 00 00 00 00 00 00 00 
   309)      4930.4  Rx         0211  8  00 00 00 00 00 00 00 00 
   310)      4930.4  Rx         0212  8  00 00 00 00 00 00 00 00 
   311)      4930.4  Rx         0213  8  02 FF 00 00 00 00 00 00 
   312)      4932.8  Rx         0341  8  00 00 00 00 00 00 00 01 
   313)      4933.0  Rx         0241  8  00 00 00 00 02 02 8B A2 
   314)      4933.7  Rx         02C0  8  00 1D FF EE 00 14 00 11 
   315)      4933.9  Rx         03C0  8  00 00 00 00 00 00 00 00 
   316)      4934.1  Rx         04C0  8  00 00 00 00 00 00 00 78 
   317)      4934.3  Rx         04AA  8  00 29 00 8D 00 14 00 11 
   318)      4934.5  Rx         04AC  8  08 11 08 34 08 0D 00 00 
   319)      4934.7  Rx         04BE  8  00 00 00 00 00 00 00 00 
   320)      4934.9  Rx         04BF  8  00 1D FF EE 00 00 00 00 
   321)      4938.6  Rx         0080  8  00 05 00 0D 00 9D 00 00 
   322)      4938.9  Rx         028C  8  00 00 00 00 00 00 00 00 
   323)      4939.0  Rx         038C  8  14 2E 00 00 00 00 00 00 
   324)      4939.1  Rx         048C  8  00 00 00 00 00 00 00 00 
   325)      4940.4  Rx         0210  8  00 00 00 00 00 00 00 00 
   326)      4940.4  Rx         0211  8  00 00 00 00 00 00 00 00 
   327)      4940.4  Rx         0212  8  00 00 00 00 00 00 00 00 
   328)      4940.4  Rx         0213  8  02 FF 00 00 00 00 00 00 
   329)      4942.5  Rx         0341  8  00 00 00 00 00 00 00 01 
   330)      4942.6  Rx         0241  8  00 00 00 00 02 02 8B A2 
   331)      4943.7  Rx         02C0  8  00 1D FF EE 00 14 00 11 
   332)      4943.9  Rx         03C0  8  00 00 00 00 00 00 00 00 
   333)      4944.1  Rx         04C0  8  00 00 00 00 00 00 00 78 
   334)      4944.3  Rx         04AA  8  00 22 00 90 00 14 00 11 
   335)      4944.5  Rx         04AC  8  08 11 08 34 08 0D 00 00 
   336)      4944.7  Rx         04BE  8  00 00 00 00 00 00 00 00 
   337)      4944.9  Rx         04BF  8  00 1D FF EE 00 00 00 00 
   338)      4948.6  Rx         0080  8  00 05 00 0D 00 9D 00 00 
   339)      4948.9  Rx         028C  8  00 00 00 00 00 00 00 00 
   340)      4949.0  Rx         038C  8  14 2E 00 00 00 00 00 00 
   341)      4949.2  Rx         048C  8  00 00 00 00 00 00 00 00 
   342)      4950.4  Rx         0210  8  00 00 00 00 00 00 00 00 
   343)      4950.4  Rx         0211  8  00 00 00 00 00 00 00 00 
   344)      4950.4  Rx         0212  8  00 00 00 00 00 00 00 00 
   345)      4950.4  Rx         0213  8  02 FF 00 00 00 00 00 00 
   346)      4953.0  Rx         0341  8  00 00 00 00 00 00 00 01 
   347)      4953.1  Rx         0241  8  00 00 00 00 02 02 8B A2 
   348)      4953.7  Rx         02C0  8  00 1D FF EE 00 14 00 11 
   349)      4953.9  Rx         03C0  8  00 00 00 00 00 00 00 00 
   350)      4954.1  Rx         04C0  8  00 00 00 00 00 00 00 78 
   351)      4954.2  Rx         04AA  8  00 29 00 8D 00 14 00 11 
   352)      4954.5  Rx         04AC  8  08 11 08 34 08 0D 00 00 
   353)      4954.7  Rx         04BE  8  00 00 00 00 00 00 00 00 
   354)      4954.9  Rx         04BF  8  00 1D FF EE 00 00 00 00 
   355)      4958.6  Rx         0080  8  00 05 00 0D 00 9D 00 00 
   356)      4958.9  Rx         028C  8  00 00 00 00 00 00 00 00 
   357)      4959.0  Rx         038C  8  14 2E 00 00 00 00 00 00 
   358)      4959.2  Rx         048C  8  00 00 00 00 00 00 00 00 
   359)      4960.4  Rx         0210  8  00 00 00 00 00 00 00 00 
   360)      4960.4  Rx         0211  8  00 00 00 00 00 00 00 00 
   361)      4960.4  Rx         0212  8  00 00 00 00 00 00 00 00 
   362)      4960.4  Rx         0213  8  02 FF 00 00 00 00 00 00 
   363)      4962.6  Rx         0341  8  00 00 00 00 00 00 00 01 
   364)      4962.8  Rx         0241  8  00 00 00 00 02 02 8B A2 
   365)      4963.7  Rx         02C0  8  00 1D FF EE 00 14 00 11 
   366)      4963.8  Rx         03C0  8  00 00 00 00 00 00 00 00 
   367)      4964.1  Rx         04C0  8  00 00 00 00 00 00 00 78 
   368)      4964.3  Rx         04AA  8  00 29 00 90 00 14 00 11 
   369)      4964.4  Rx         04AC  8  08 11 08 34 08 0D 00 00 
   370)      4964.7  Rx         04BE  8  00 00 00 00 00 00 00 00 
   371)      4964.9  Rx         04BF  8  00 1D FF EE 00 00 00 00 
   372)      4968.6  Rx         0080  8  00 05 00 0D 00 9C 00 00 
   373)      4968.9  Rx         028C  8  00 00 00 00 00 00 00 00 
   374)      4969.0  Rx         038C  8  14 2E 00 00 00 00 00 00 
   375)      4969.1  Rx         048C  8  00 00 00 00 00 00 00 00 
   376)      4970.4  Rx         0210  8  00 00 00 00 00 00 00 00 
   377)      4970.4  Rx         0211  8  00 00 00 00 00 00 00 00 
   378)      4970.4  Rx         0212  8  00 00 00 00 00 00 00 00 
   379)      4970.4  Rx         0213  8  02 FF 00 00 00 00 00 00 
   380)      4972.2  Rx         0341  8  00 00 00 00 00 00 00 01 
   381)      4972.4  Rx         0241  8  00 00 00 00 02 02 8B A2 
