(1614019475.020443) can0 01800A00#
(1614019475.025802) can0 01800A00#
(1614019475.031188) can0 01A00A00#
(1614019475.036541) can0 01A00A00#
(1614019475.041917) can0 00800A00#
(1614019475.047285) can0 00800A00#
(1614019475.052680) can0 00600A00#
(1614019475.058082) can0 00600A00#
(1614019475.063404) can0 00C00A00#
(1614019475.068788) can0 00C00A00#
(1614019475.074164) can0 00A00A00#
(1614019475.079540) can0 00A00A00#
(1614019475.084904) can0 00400A00#
(1614019475.090277) can0 00400A00#
(1614019475.095656) can0 00200A00#
(1614019475.101028) can0 00200A00#
(1614019475.106408) can0 01000A00#
(1614019475.111742) can0 01000A00#
(1614019475.117147) can0 01200A00#
(1614019475.122530) can0 01200A00#
(1614019475.127872) can0 01400A00#
(1614019475.133224) can0 01400A00#
(1614019475.138601) can0 01600A00#
(1614019475.144011) can0 01600A00#
(1614019475.149378) can0 03000A00#
(1614019475.154715) can0 03000A00#
(1614019475.160106) can0 03200A00#
(1614019475.165477) can0 03200A00#
(1614019475.448184) can0 343#00000002FFFFFFFF
(1614019475.448435) can0 343#0006FFFFFFFFFFFF
(1614019475.448648) can0 540#30000002FFFFFFFF
(1614019475.448811) can0 343#000CFFFFFFFFFFFF
(1614019475.449028) can0 540#3006FFFFFFFFFFFF
(1614019475.449203) can0 343#0012FFFF00070002
(1614019475.449381) can0 540#300CFFFFFFFFFFFF
(1614019475.449591) can0 343#001803E800000014
(1614019475.449754) can0 540#3012FFFF00070002
(1614019475.450015) can0 343#001EEC71FFFF0D96
(1614019475.450207) can0 540#301803E800000014
(1614019475.450378) can0 343#002400001900EC71
(1614019475.450577) can0 540#301EEC71FFFF0D96
(1614019475.450799) can0 343#002AFFFF0B662D00
(1614019475.450993) can0 540#302400001900EC71
(1614019475.451180) can0 343#0030D300FE7CFFFF
(1614019475.451378) can0 540#302AFFFF0B662D00
(1614019475.451600) can0 343#00360947F9C00640
(1614019475.451768) can0 540#3030D300FE7CFFFF
(1614019475.452021) can0 343#003C000AFE64FFFF
(1614019475.452225) can0 540#30360947F9C00640
(1614019475.452415) can0 343#0042072EF9C00640
(1614019475.452588) can0 540#303C000AFE64FFFF
(1614019475.452814) can0 343#0048000A00000000
(1614019475.453011) can0 540#3042072EF9C00640
(1614019475.453201) can0 343#004E000000000000
(1614019475.453381) can0 540#3048000A00000000
(1614019475.453597) can0 343#0054000000001280
(1614019475.453759) can0 540#304E000000000000
(1614019475.454011) can0 343#005A000000000000
(1614019475.454200) can0 540#3054000000001280
(1614019475.454370) can0 343#006000000000F07F
(1614019475.454538) can0 540#305A000000000000
(1614019475.454814) can0 343#0066FFFF0B760000
(1614019475.455009) can0 540#306000000000F07F
(1614019475.455188) can0 343#006C00000B0C0000
(1614019475.455361) can0 540#3066FFFF0B760000
(1614019475.455644) can0 343#0072085B00000000
(1614019475.455823) can0 540#306C00000B0C0000
(1614019475.456035) can0 343#0078000A00000000
(1614019475.456223) can0 540#3072085B00000000
(1614019475.456385) can0 343#007E00000000F560
(1614019475.456544) can0 540#3078000A00000000
(1614019475.456800) can0 343#0084FFFF0A720000
(1614019475.456993) can0 540#307E00000000F560
(1614019475.457242) can0 343#008A000000000000
(1614019475.457438) can0 540#3084FFFF0A720000
(1614019475.457627) can0 343#0090000000000000
(1614019475.457807) can0 540#308A000000000000
(1614019475.458000) can0 343#009600000000BE23
(1614019475.458170) can0 540#3090000000000000
(1614019475.458818) can0 540#309600000000BE23
(1614019475.467726) can0 080#0001020100A00004
(1614019475.468049) can0 28C#0000000000000000
(1614019475.468248) can0 38C#142E000000000000
(1614019475.468430) can0 48C#0000000000000000
(1614019475.468565) can0 618#4020011600000000
(1614019475.469243) can0 4C2#0051002D00000000
(1614019475.469410) can0 1BD#AC00FFF53F9A0FDB
(1614019475.469832) can0 213#03E8000000000000
(1614019475.470012) can0 540#0008000000000000
(1614019475.470177) can0 440#00030000FFFF0000
(1614019475.470649) can0 212#0000000000000000
(1614019475.470809) can0 340#FFEDFFC400000001
(1614019475.471068) can0 240#0005FFE700000000
(1614019475.471251) can0 341#0000000000000000
(1614019475.471423) can0 241#00000000001F8BA2
(1614019475.471916) can0 210#0000000000000000
(1614019475.472122) can0 540#2977072E07CE0000
(1614019475.472610) can0 211#0000000000000000
(1614019475.472815) can0 2C0#0000000000000000
(1614019475.473042) can0 3C0#0000000000000000
(1614019475.473217) can0 4C0#0000000000000000
(1614019475.473404) can0 4AA#D5AE00BC00000000
(1614019475.473575) can0 4AC#0000000000000000
(1614019475.473793) can0 4BE#0000000000000000
(1614019475.474038) can0 4BF#0000000000000000
(1614019475.477729) can0 080#00010201009C0004
(1614019475.478052) can0 28C#0000000000000000
(1614019475.478223) can0 38C#142E000000000000
(1614019475.478389) can0 48C#0000000000000000
(1614019475.478996) can0 1BD#AD000B86111F0000
(1614019475.479292) can0 4C2#0051002D00000000
(1614019475.479736) can0 213#03E8000000000000
(1614019475.480178) can0 540#0008000000000100
(1614019475.480300) can0 440#0003FFFFFFFF0000
(1614019475.480413) can0 212#0000000000000000
(1614019475.480885) can0 340#FFF1FFC400000001
(1614019475.481020) can0 210#0000000000000000
(1614019475.481183) can0 240#0005FFE700000000
(1614019475.481349) can0 341#0000000000000000
(1614019475.481521) can0 241#0000000000028BA2
(1614019475.482000) can0 211#0000000000000000
(1614019475.482164) can0 540#1D9506D20B7B0A88
(1614019475.482794) can0 2C0#0000000000000000
(1614019475.483045) can0 3C0#0000000000000000
(1614019475.483209) can0 4C0#0000000000000078
(1614019475.483371) can0 4AA#D5AE00C2FFEDFFC4
(1614019475.483582) can0 4AC#0977072E07CE0000
(1614019475.483793) can0 4BE#0000000000000000
(1614019475.484033) can0 4BF#0005FFE700000000
(1614019475.487727) can0 080#00010201009C0004
(1614019475.488049) can0 28C#0000000000000000
(1614019475.488211) can0 38C#142E000000000000
(1614019475.488372) can0 48C#0000000000000000
(1614019475.489319) can0 4C2#0051002D00000000
(1614019475.489833) can0 213#03E8000000000000
(1614019475.490072) can0 540#0008000000000200
(1614019475.490239) can0 440#00030000FFFF0000
(1614019475.490662) can0 212#0000000000000000
(1614019475.491071) can0 340#FFF1FFC400000001
(1614019475.491247) can0 240#0005FFE700000000
(1614019475.491306) can0 210#0000000000000000
(1614019475.491459) can0 341#0000000000000000
(1614019475.491615) can0 241#130017124F028BA2
(1614019475.492116) can0 540#2976072E07CE0000
(1614019475.492246) can0 211#0000000000000000
(1614019475.492790) can0 2C0#0005FFE7FFEDFFC4
(1614019475.493029) can0 3C0#0000000000000000
(1614019475.493222) can0 4C0#0000000000000078
(1614019475.493399) can0 4AA#D5BC00BFFFF1FFC4
(1614019475.493575) can0 4AC#0977072E07CE0000
(1614019475.493829) can0 4BE#0000000000000000
(1614019475.494024) can0 4BF#0005FFE700000000
(1614019475.497724) can0 080#00050201009B0004
(1614019475.498047) can0 28C#0000000000000000
(1614019475.498215) can0 38C#142E000000000000
(1614019475.498384) can0 48C#0000000000000000
(1614019475.498498) can0 620#4020011600000000
(1614019475.499338) can0 4C2#0051002D00000000
(1614019475.499800) can0 213#03E8000000000000
(1614019475.500075) can0 540#0008000000000300
(1614019475.500243) can0 440#00030000FFFF0000
(1614019475.500714) can0 212#0000000000000000
(1614019475.500998) can0 340#FFF1FFC400000001
(1614019475.501206) can0 240#0000FFE200000000
(1614019475.501380) can0 540#1D9506D30B7B0A89
(1614019475.501560) can0 341#0000000000000000
(1614019475.501728) can0 241#0000000000028BA2
(1614019475.502171) can0 210#0000000000000000
(1614019475.502653) can0 211#0000000000000000
(1614019475.502843) can0 2C0#0005FFE7FFF1FFC4
(1614019475.503058) can0 3C0#0000000000000000
(1614019475.503243) can0 4C0#0000000000000078
(1614019475.503419) can0 4AA#D5AE00C2FFF1FFC4
(1614019475.503590) can0 4AC#0976072E07CE0000
(1614019475.503814) can0 4BE#0000000000000000
(1614019475.504015) can0 4BF#0005FFE700000000
(1614019475.507728) can0 080#00050201009B0004
(1614019475.508044) can0 28C#0000000000000000
(1614019475.508213) can0 38C#142E000000000000
(1614019475.508395) can0 48C#0000000000000000
(1614019475.509411) can0 4C2#0605040600000000
(1614019475.509895) can0 213#03E8000000000000
(1614019475.510159) can0 540#0008000000000400
(1614019475.510334) can0 440#00030000FFFF0000
(1614019475.510764) can0 212#0000000000000000
(1614019475.511184) can0 340#FFEDFFC100000001
(1614019475.511305) can0 240#0005FFE300000000
(1614019475.511417) can0 210#0000000000000000
(1614019475.511580) can0 341#0000000000000000
(1614019475.511738) can0 241#0800080711028BA2
(1614019475.512166) can0 540#2976072E07CF0000
(1614019475.512284) can0 211#0000000000000000
(1614019475.512792) can0 2C0#0005FFE7FFF1FFC4
(1614019475.513024) can0 3C0#0000000000000000
(1614019475.513193) can0 4C0#0000000000000078
(1614019475.513417) can0 4AA#D5AE00C2FFF1FFC4
(1614019475.513585) can0 4AC#0976072E07CE0000
(1614019475.513804) can0 4BE#0000000000000000
(1614019475.513979) can0 4BF#0000FFE200000000
(1614019475.517733) can0 080#00050201009B0004
(1614019475.518052) can0 28C#0000000000000000
(1614019475.518224) can0 38C#142E000000000000
(1614019475.518390) can0 48C#0000000000000000
(1614019475.519438) can0 4C2#0605040600000000
(1614019475.519890) can0 213#03E8000000000000
(1614019475.520185) can0 540#0008000000000500
(1614019475.520358) can0 440#00030000FFFF0000
(1614019475.520784) can0 212#0000000000000000
(1614019475.521196) can0 340#FFEDFFC400000001
(1614019475.521366) can0 240#0005FFE700000000
(1614019475.521428) can0 210#0000000000000000
(1614019475.521639) can0 341#0000000000000000
(1614019475.521796) can0 241#0500040300028BA2
(1614019475.522232) can0 540#1D9506D20B7A0A89
(1614019475.522350) can0 211#0000000000000000
(1614019475.522792) can0 2C0#0000FFE2FFF1FFC4
(1614019475.523039) can0 3C0#0000000000000000
(1614019475.523208) can0 4C0#0000000000000078
(1614019475.523376) can0 4AA#D5AE00BFFFEDFFC1
(1614019475.523596) can0 4AC#0976072E07CF0000
(1614019475.523817) can0 4BE#0000000000000000
(1614019475.524009) can0 4BF#0005FFE300000000
(1614019475.527743) can0 080#00050201009B0004
(1614019475.528058) can0 28C#0000000000000000
(1614019475.528229) can0 38C#142E000000000000
(1614019475.528398) can0 48C#0000000000000000
(1614019475.528514) can0 624#4020011600000000
(1614019475.529498) can0 4C2#0605040600000000
(1614019475.529982) can0 213#03E8000000000000
(1614019475.530210) can0 540#0008000000000600
(1614019475.530382) can0 440#00030000FFFF0000
(1614019475.530832) can0 212#0000000000000000
(1614019475.531274) can0 340#FFF1FFC400000001
(1614019475.531401) can0 240#000AFFE800000000
(1614019475.531517) can0 210#0000000000000000
(1614019475.531681) can0 341#0000000000000000
(1614019475.531838) can0 241#0600050507028BA2
(1614019475.532239) can0 540#2975072E07CE0000
(1614019475.532353) can0 211#0000000000000000
(1614019475.532795) can0 2C0#0005FFE3FFEDFFC1
(1614019475.533044) can0 3C0#0000000000000000
(1614019475.533214) can0 4C0#0000000000000078
(1614019475.533386) can0 4AA#D5AE00BCFFEDFFC4
(1614019475.533605) can0 4AC#0976072E07CF0000
(1614019475.533825) can0 4BE#0000000000000000
(1614019475.534020) can0 4BF#0005FFE700000000
(1614019475.537725) can0 080#00050201009B0004
(1614019475.538036) can0 28C#0000000000000000
(1614019475.538208) can0 38C#142E000000000000
(1614019475.538376) can0 48C#0000000000000000
(1614019475.539514) can0 4C2#0605040600000000
(1614019475.539988) can0 213#03E8000000000000
(1614019475.540219) can0 540#0008000000000700
(1614019475.540378) can0 440#00030000FFFF0000
(1614019475.540865) can0 212#0000000000000000
(1614019475.541281) can0 340#FFF1FFC100000001
(1614019475.541402) can0 240#0005FFE700000000
(1614019475.541518) can0 210#0000000000000000
(1614019475.541731) can0 341#0000000000000000
(1614019475.541906) can0 241#0600050404028BA2
(1614019475.542342) can0 540#1D9506D20B7A0A89
(1614019475.542460) can0 211#0000000000000000
(1614019475.542793) can0 2C0#0005FFE7FFEDFFC4
(1614019475.543046) can0 3C0#0000000000000000
(1614019475.543214) can0 4C0#0000000000000078
(1614019475.543377) can0 4AA#D5AE00BFFFF1FFC4
(1614019475.543587) can0 4AC#0975072E07CE0000
(1614019475.543800) can0 4BE#0000000000000000
(1614019475.544055) can0 4BF#000AFFE800000000
(1614019475.547725) can0 080#00050201009B0004
(1614019475.548044) can0 28C#0000000000000000
(1614019475.548232) can0 38C#142E000000000000
(1614019475.548393) can0 48C#0000000000000000
(1614019475.549608) can0 4C2#0605040600000000
(1614019475.550155) can0 213#03E8000000000000
(1614019475.550323) can0 540#0008000000000800
(1614019475.550492) can0 440#0003FFFFFFFF0000
(1614019475.550975) can0 341#0000000000000000
(1614019475.551088) can0 212#0000000000000000
(1614019475.551285) can0 241#0600050405028BA2
(1614019475.551457) can0 340#FFEDFFC600000001
(1614019475.551893) can0 210#0000000000000000
(1614019475.552357) can0 211#0000000000000000
(1614019475.552519) can0 240#0005FFE700000000
(1614019475.552793) can0 2C0#000AFFE8FFF1FFC4
(1614019475.553018) can0 3C0#0000000000000000
(1614019475.553184) can0 4C0#0000000000000078
(1614019475.553345) can0 540#2976072D07CE0000
(1614019475.553506) can0 4AA#D5AE00C2FFF1FFC1
(1614019475.553674) can0 4AC#0975072E07CE0000
(1614019475.553842) can0 4BE#0000000000000000
(1614019475.554034) can0 4BF#0005FFE700000000
(1614019475.557724) can0 080#00050201009B0004
(1614019475.558048) can0 28C#0000000000000000
(1614019475.558228) can0 38C#142E000000000000
(1614019475.558396) can0 48C#0000000000000000
(1614019475.559584) can0 4C2#0605040600000000
(1614019475.559694) can0 213#03E8000000000000
(1614019475.560123) can0 212#0000000000000000
(1614019475.560306) can0 540#0008000000000900
(1614019475.560476) can0 440#00030000FFFF0000
(1614019475.560978) can0 341#0000000000000000
(1614019475.561152) can0 241#0600050405028BA2
(1614019475.561276) can0 210#0000000000000000
(1614019475.561613) can0 340#FFEDFFC400000001
(1614019475.562071) can0 211#0000000000000000
(1614019475.562485) can0 240#0005FFEC00000000
(1614019475.562846) can0 2C0#0005FFE7FFF1FFC1
(1614019475.563043) can0 3C0#0000000000000000
(1614019475.563215) can0 4C0#0000000000000078
(1614019475.563383) can0 540#1D9506D30B7B0A89
(1614019475.563573) can0 4AA#D5B500BCFFEDFFC6
(1614019475.563739) can0 4AC#0976072D07CE0000
(1614019475.563904) can0 4BE#0000000000000000
(1614019475.564229) can0 4BF#0005FFE700000000
(1614019475.567730) can0 080#00050201009B0005
(1614019475.568056) can0 28C#0000000000000000
(1614019475.568245) can0 38C#142E000000000000
(1614019475.568430) can0 48C#0000000000000000
(1614019475.569677) can0 4C2#0605040600000000
(1614019475.569803) can0 213#03E8000000000000
(1614019475.570334) can0 540#0008000000000A00
(1614019475.570455) can0 212#0000000000000000
(1614019475.570617) can0 440#00030000FFFF0000
(1614019475.571055) can0 341#0000000000000000
(1614019475.571172) can0 210#0000000000000000
(1614019475.571350) can0 241#0600050405028BA2
(1614019475.571540) can0 340#FFF1FFC400000001
(1614019475.572029) can0 211#0000000000000000
(1614019475.572551) can0 240#0005FFE700000000
(1614019475.572794) can0 2C0#0005FFE7FFEDFFC6
(1614019475.573059) can0 3C0#0000000000000000
(1614019475.573246) can0 4C0#0000000000000078
(1614019475.573434) can0 4AA#D5AE00D1FFEDFFC4
(1614019475.573621) can0 540#2975072E07CE0000
(1614019475.573796) can0 4AC#0976072D07CE0000
(1614019475.573914) can0 4BE#0000000000000000
(1614019475.574142) can0 4BF#0005FFEC00000000
(1614019475.577741) can0 080#00050201009C0004
(1614019475.578077) can0 28C#0000000000000000
(1614019475.578249) can0 38C#142E000000000000
(1614019475.578416) can0 48C#0000000000000000
(1614019475.579586) can0 213#03E8000000000000
(1614019475.579748) can0 4C2#0605040600000000
(1614019475.580284) can0 212#0000000000000000
(1614019475.580443) can0 540#0008000000000B00
(1614019475.580602) can0 440#00030000FFFF0000
(1614019475.581105) can0 341#0000000000000000
(1614019475.581275) can0 241#0600050405028BA2
(1614019475.581338) can0 210#0000000000000000
(1614019475.581500) can0 340#FFF1FFC400000001
(1614019475.581932) can0 211#0000000000000000
(1614019475.582607) can0 240#0000FFE200000000
(1614019475.582779) can0 2C0#0005FFECFFEDFFC4
(1614019475.583034) can0 3C0#0000000000000000
(1614019475.583205) can0 4C0#0000000000000078
(1614019475.583373) can0 4AA#D5B500BFFFF1FFC4
(1614019475.583542) can0 540#1D9506D10B7B0A8A
(1614019475.583710) can0 4AC#0975072E07CE0000
(1614019475.583877) can0 4BE#0000000000000000
(1614019475.584066) can0 4BF#0005FFE700000000
(1614019475.587729) can0 080#00050201009C0004
(1614019475.588045) can0 28C#0000000000000000
(1614019475.588211) can0 38C#142E000000000000
(1614019475.588376) can0 48C#0000000000000000
(1614019475.589743) can0 4C2#0605040600000000
(1614019475.589855) can0 213#03E8000000000000
(1614019475.590315) can0 212#0000000000000000
(1614019475.590492) can0 540#0008000000000C00
(1614019475.590662) can0 440#00030000FFFF0000
(1614019475.591153) can0 341#0000000000000000
(1614019475.591277) can0 210#0000000000000000
(1614019475.591437) can0 241#0600050405028BA2
(1614019475.591591) can0 340#FFEDFFC400000001
(1614019475.592082) can0 211#0000000000000000
(1614019475.592674) can0 240#0005FFE700000000
(1614019475.592875) can0 2C0#0005FFE7FFF1FFC4
(1614019475.593070) can0 3C0#0000000000000000
(1614019475.593239) can0 4C0#0000000000000078
(1614019475.593404) can0 4AA#D5AE00C2FFF1FFC4
(1614019475.593572) can0 540#2976072D07CE0000
(1614019475.593738) can0 4AC#0975072E07CE0000
(1614019475.593908) can0 4BE#0000000000000000
(1614019475.594104) can0 4BF#0000FFE200000000
(1614019475.597757) can0 080#00050201009C0004
(1614019475.598078) can0 28C#0000000000000000
(1614019475.598246) can0 38C#142E000000000000
(1614019475.598420) can0 48C#0000000000000000
(1614019475.599691) can0 213#03E8000000000000
(1614019475.599880) can0 4C2#0605040600000000
(1614019475.600386) can0 212#0000000000000000
(1614019475.600576) can0 540#0008000000000D00
(1614019475.600753) can0 440#00030000FFFF0000
(1614019475.601201) can0 341#0000000000000000
(1614019475.601319) can0 210#0000000000000000
(1614019475.601477) can0 241#0600050405028BA2
(1614019475.601634) can0 340#FFF1FFC100000001
(1614019475.601791) can0 240#0005FFE700000000
(1614019475.602266) can0 211#0000000000000000
(1614019475.602624) can0 540#1D9506D20B7A0A89
(1614019475.602806) can0 2C0#0000FFE2FFF1FFC4
(1614019475.602987) can0 3C0#0000000000000000
(1614019475.603210) can0 4C0#0000000000000078
(1614019475.603384) can0 4AA#D5AE00BFFFEDFFC4
(1614019475.603610) can0 4AC#0976072D07CE0000
(1614019475.603776) can0 4BE#0000000000000000
(1614019475.604037) can0 4BF#0005FFE700000000
(1614019475.607747) can0 080#00050201009C0004
(1614019475.608057) can0 28C#0000000000000000
(1614019475.608225) can0 38C#142E000000000000
(1614019475.608390) can0 48C#0000000000000000
(1614019475.609824) can0 4C2#0605040600000000
(1614019475.610339) can0 213#03E8000000000000
(1614019475.610501) can0 540#0008000000000E00
(1614019475.610757) can0 440#00030000FFFF0000
(1614019475.611185) can0 212#0000000000000000
(1614019475.611366) can0 341#0000000000000000
(1614019475.611538) can0 241#0600050405028BA2
(1614019475.611717) can0 340#FFEDFFC400000001
(1614019475.611835) can0 240#0000FFE200000000
(1614019475.612384) can0 210#0000000000000000
(1614019475.612552) can0 540#2975072E07CE0000
(1614019475.612978) can0 2C0#0005FFE7FFEDFFC4
(1614019475.613169) can0 3C0#0000000000000000
(1614019475.613239) can0 211#0000000000000000
(1614019475.613430) can0 4C0#0000000000000078
(1614019475.613544) can0 4AA#D5AE00BFFFF1FFC1
(1614019475.613739) can0 4AC#0976072D07CE0000
(1614019475.614045) can0 4BF#0005FFE700000000
(1614019475.614179) can0 4BE#0000000000000000
(1614019475.617727) can0 080#00050201009C0004
(1614019475.618049) can0 28C#0000000000000000
(1614019475.618219) can0 38C#142E000000000000
(1614019475.618385) can0 48C#0000000000000000
(1614019475.619616) can0 213#03E8000000000000
(1614019475.620019) can0 4C2#0605040600000000
(1614019475.620152) can0 212#0000000000000000
(1614019475.620556) can0 540#0008000000000F00
(1614019475.620670) can0 210#0000000000000000
(1614019475.620832) can0 440#00030000FFFF0000
(1614019475.621349) can0 341#0000000000000000
(1614019475.621465) can0 211#0000000000000000
(1614019475.621625) can0 241#0600050405028BA2
(1614019475.621792) can0 340#FFF1FFC600000001
(1614019475.622567) can0 240#0005FFE700000000
(1614019475.622791) can0 2C0#0005FFE7FFF1FFC1
(1614019475.623064) can0 3C0#0000000000000000
(1614019475.623265) can0 4C0#0000000000000078
(1614019475.623451) can0 4AA#D5A800C5FFEDFFC4
(1614019475.623654) can0 4AC#0975072E07CE0000
(1614019475.623841) can0 540#1D9506D20B7A0A89
(1614019475.623991) can0 4BE#0000000000000000
(1614019475.624162) can0 4BF#0000FFE200000000
(1614019475.627751) can0 080#00050201009C0004
(1614019475.628068) can0 28C#0000000000000000
(1614019475.628276) can0 38C#142E000000000000
(1614019475.628477) can0 48C#0000000000000000
(1614019475.629767) can0 213#03E8000000000000
(1614019475.629938) can0 4C2#0605040600000000
(1614019475.630472) can0 212#0000000000000000
(1614019475.630634) can0 540#0008000000001000
(1614019475.630792) can0 440#00030000FFFF0000
(1614019475.631298) can0 210#0000000000000000
(1614019475.631459) can0 341#0000000000000000
(1614019475.631618) can0 241#0600050405028BA2
(1614019475.631773) can0 340#FFF1FFC400000001
(1614019475.631931) can0 240#0005FFE700000000
(1614019475.632443) can0 211#0000000000000000
(1614019475.632795) can0 2C0#0000FFE2FFEDFFC4
(1614019475.633008) can0 540#2975072E07CE0000
(1614019475.633185) can0 3C0#0000000000000000
(1614019475.633354) can0 4C0#0000000000000078
(1614019475.633552) can0 4AA#D5B500BFFFF1FFC6
(1614019475.633728) can0 4AC#0975072E07CE0000
(1614019475.633896) can0 4BE#0000000000000000
(1614019475.634109) can0 4BF#0005FFE700000000
(1614019475.637733) can0 080#00050201009C0004
(1614019475.638055) can0 28C#0000000000000000
(1614019475.638239) can0 38C#142E000000000000
(1614019475.638415) can0 48C#0000000000000000
(1614019475.639960) can0 4C2#0605040600000000
(1614019475.640073) can0 213#03E8000000000000
(1614019475.640539) can0 212#0000000000000000
(1614019475.640705) can0 540#0008000000001100
(1614019475.640875) can0 440#00030000FFFF0000
(1614019475.641366) can0 210#0000000000000000
(1614019475.641527) can0 340#FFEDFFC400000001
(1614019475.641686) can0 241#0600050405028BA2
(1614019475.641843) can0 240#0005FFE300000000
(1614019475.642037) can0 341#0000000000000000
(1614019475.642536) can0 211#0000000000000000
(1614019475.642800) can0 2C0#0005FFE7FFF1FFC6
(1614019475.642999) can0 540#1D9506D20B7A0A8A
(1614019475.643207) can0 3C0#0000000000000000
(1614019475.643378) can0 4AA#D5AE00C2FFF1FFC4
(1614019475.643495) can0 4C0#0000000000000078
(1614019475.643662) can0 4AC#0975072E07CE0000
(1614019475.643829) can0 4BE#0000000000000000
(1614019475.644035) can0 4BF#0005FFE700000000
(1614019475.647764) can0 080#00050201009C0004
(1614019475.648059) can0 28C#0000000000000000
(1614019475.648238) can0 38C#142E000000000000
(1614019475.648431) can0 48C#0000000000000000
(1614019475.650142) can0 4C2#0605040600000000
(1614019475.650269) can0 213#03E8000000000000
(1614019475.650676) can0 540#0008000000001200
(1614019475.650791) can0 212#0000000000000000
(1614019475.650997) can0 440#00030000FFFF0000
(1614019475.651466) can0 210#0000000000000000
(1614019475.651644) can0 341#0000000000000000
(1614019475.651830) can0 241#0600050405028BA2
(1614019475.652045) can0 340#FFF1FFC400000001
(1614019475.652497) can0 211#0000000000000000
(1614019475.652800) can0 2C0#0005FFE7FFF1FFC4
(1614019475.653010) can0 3C0#0000000000000000
(1614019475.653189) can0 240#0005FFE300000000
(1614019475.653377) can0 4C0#0000000000000078
(1614019475.653563) can0 4AA#D5AE00BFFFEDFFC4
(1614019475.653756) can0 4AC#0975072E07CE0000
(1614019475.653963) can0 4BE#0000000000000000
(1614019475.654164) can0 4BF#0005FFE300000000
(1614019475.654350) can0 540#2975072D07CE0000
(1614019475.657751) can0 080#00050201009C0004
(1614019475.658055) can0 28C#0000000000000000
(1614019475.658252) can0 38C#142E000000000000
(1614019475.658435) can0 48C#0000000000000000
(1614019475.659932) can0 213#03E8000000000000
(1614019475.660148) can0 4C2#0605040600000000
(1614019475.660587) can0 212#0000000000000000
(1614019475.660767) can0 540#0008000000001300
(1614019475.660998) can0 440#00030000FFFF0000
(1614019475.661448) can0 210#0000000000000000
(1614019475.661627) can0 340#FFEDFFC400000001
(1614019475.661797) can0 341#0000000000000000
(1614019475.662001) can0 240#0000FFDE00000000
(1614019475.662120) can0 241#0600050405028BA2
(1614019475.662561) can0 211#0000000000000000
(1614019475.662720) can0 540#1D9506D20B7A0A89
(1614019475.662896) can0 2C0#0005FFE3FFEDFFC4
(1614019475.663105) can0 3C0#0000000000000000
(1614019475.663277) can0 4C0#0000000000000078
(1614019475.663462) can0 4AA#D5AE00BFFFF1FFC4
(1614019475.663631) can0 4AC#0975072D07CE0000
(1614019475.663801) can0 4BE#0000000000000000
(1614019475.664055) can0 4BF#0005FFE300000000
(1614019475.667729) can0 080#00050201009C0005
(1614019475.668069) can0 28C#0000000000000000
(1614019475.668256) can0 38C#142E000000000000
(1614019475.668444) can0 48C#0000000000000000
(1614019475.669883) can0 213#03E8000000000000
(1614019475.670088) can0 4C2#0605040600000000
(1614019475.670606) can0 212#0000000000000000
(1614019475.670770) can0 540#0008000000001400
(1614019475.670993) can0 440#00040000FFFF0000
(1614019475.671461) can0 210#0000000000000000
(1614019475.671630) can0 340#FFEDFFC400000001
(1614019475.671790) can0 341#0000000000000000
(1614019475.671961) can0 240#0005FFE700000000
(1614019475.672120) can0 241#0600050405028BA2
(1614019475.672609) can0 211#0000000000000000
(1614019475.672781) can0 540#2975072D07CE0000
(1614019475.672939) can0 2C0#0005FFE3FFF1FFC4
(1614019475.673135) can0 3C0#0000000000000000
(1614019475.673302) can0 4C0#0000000000000078
(1614019475.673473) can0 4AA#D5B500BFFFEDFFC4
(1614019475.673639) can0 4AC#0975072D07CE0000
(1614019475.673864) can0 4BE#0000000000000000
(1614019475.674068) can0 4BF#0000FFDE00000000
(1614019475.677747) can0 080#00050201009C0004
(1614019475.678083) can0 28C#0000000000000000
(1614019475.678269) can0 38C#142E000000000000
(1614019475.678453) can0 48C#0000000000000000
(1614019475.679381) can0 4C2#0605040600000000
(1614019475.679814) can0 213#03E8000000000000
(1614019475.680249) can0 540#0008000000001500
(1614019475.680365) can0 212#0000000000000000
(1614019475.680807) can0 440#00030000FFFF0000
(1614019475.680936) can0 210#0000000000000000
(1614019475.681135) can0 340#FFF1FFC600000001
(1614019475.681596) can0 211#0000000000000000
(1614019475.681778) can0 240#0005FFEC00000000
(1614019475.681996) can0 341#0000000000000000
(1614019475.682183) can0 241#0600050405028BA2
(1614019475.682333) can0 540#1D9506D20B7A0A89
(1614019475.682811) can0 2C0#0000FFDEFFEDFFC4
(1614019475.683024) can0 3C0#0000000000000000
(1614019475.683192) can0 4C0#0000000000000078
(1614019475.683411) can0 4AA#D5B500BFFFEDFFC4
(1614019475.683579) can0 4AC#0975072D07CE0000
(1614019475.683796) can0 4BE#0000000000000000
(1614019475.684035) can0 4BF#0005FFE700000000
(1614019475.687727) can0 080#00050201009C0004
(1614019475.688051) can0 28C#0000000000000000
(1614019475.688236) can0 38C#142E000000000000
(1614019475.688405) can0 48C#0000000000000000
(1614019475.689352) can0 4C2#0605040600000000
(1614019475.689873) can0 213#03E8000000000000
(1614019475.690071) can0 540#0008000000001600
(1614019475.690565) can0 212#0000000000000000
(1614019475.690770) can0 440#00030000FFFF0000
(1614019475.690922) can0 341#0000000000000000
(1614019475.691116) can0 340#FFF1FFC400000001
(1614019475.691285) can0 241#0600050405028BA2
(1614019475.691671) can0 240#0000FFE200000000
(1614019475.691778) can0 210#0000000000000000
(1614019475.692229) can0 211#0000000000000000
(1614019475.692792) can0 2C0#0005FFE7FFEDFFC4
(1614019475.692991) can0 540#2975072D07CE0000
(1614019475.693167) can0 3C0#0000000000000000
(1614019475.693339) can0 4C0#0000000000000078
(1614019475.693514) can0 4AA#D5AE00BCFFF1FFC6
(1614019475.693682) can0 4AC#0975072D07CE0000
(1614019475.693848) can0 4BE#0000000000000000
(1614019475.694040) can0 4BF#0005FFEC00000000
(1614019475.697742) can0 080#00050201009C0004
(1614019475.698048) can0 28C#0000000000000000
(1614019475.698215) can0 38C#142E000000000000
(1614019475.698381) can0 48C#0000000000000000
(1614019475.699548) can0 4C2#0605040600000000
(1614019475.699696) can0 213#03E8000000000000
(1614019475.700114) can0 540#0008000000001700
(1614019475.700237) can0 212#0000000000000000
(1614019475.700686) can0 210#0000000000000000
(1614019475.700847) can0 440#00030000FFFF0000
(1614019475.701032) can0 340#FFEDFFC400000001
(1614019475.701214) can0 241#0600050405028BA2
(1614019475.701390) can0 341#0000000000000000
(1614019475.701677) can0 240#000AFFEC00000000
(1614019475.702104) can0 211#0000000000000000
(1614019475.702796) can0 2C0#0005FFECFFF1FFC6
(1614019475.702991) can0 540#1D9506D20B7A0A8A
(1614019475.703158) can0 3C0#0000000000000000
(1614019475.703325) can0 4C0#0000000000000078
(1614019475.703492) can0 4AA#D5AE00BFFFF1FFC4
(1614019475.703658) can0 4AC#0975072D07CE0000
(1614019475.703825) can0 4BE#0000000000000000
(1614019475.704091) can0 4BF#0000FFE200000000
(1614019475.707734) can0 080#00050201009B0004
(1614019475.708059) can0 28C#0000000000000000
(1614019475.708243) can0 38C#142E000000000000
(1614019475.708416) can0 48C#0000000000000000
(1614019475.709347) can0 4C2#0605040600000000
(1614019475.709839) can0 213#03E8000000000000
(1614019475.710069) can0 540#0008000000001800
(1614019475.710491) can0 212#0000000000000000
(1614019475.710868) can0 440#00030000FFFF0000
(1614019475.711077) can0 340#FFF1FFC400000001
(1614019475.711247) can0 240#0005FFE700000000
(1614019475.711310) can0 210#0000000000000000
(1614019475.711471) can0 341#0000000000000000
(1614019475.711604) can0 241#0600050405028BA2
(1614019475.712002) can0 540#2974072C07CE0000
(1614019475.712131) can0 211#0000000000000000
(1614019475.712795) can0 2C0#0000FFE2FFF1FFC4
(1614019475.713039) can0 3C0#0000000000000000
(1614019475.713231) can0 4C0#0000000000000078
(1614019475.713405) can0 4AA#D5AE00BFFFEDFFC4
(1614019475.713578) can0 4AC#0975072D07CE0000
(1614019475.713797) can0 4BE#0000000000000000
(1614019475.714035) can0 4BF#000AFFEC00000000
(1614019475.717740) can0 080#00050201009C0004
(1614019475.718067) can0 28C#0000000000000000
(1614019475.718275) can0 38C#142E000000000000
(1614019475.718440) can0 48C#0000000000000000
(1614019475.719534) can0 4C2#0605040600000000
(1614019475.719648) can0 213#03E8000000000000
(1614019475.720073) can0 212#0000000000000000
(1614019475.720260) can0 540#0008000000001900
(1614019475.720766) can0 210#0000000000000000
(1614019475.720979) can0 440#00030000FFFF0000
(1614019475.721156) can0 340#FFEDFFC400000001
(1614019475.721332) can0 341#0000000000000000
(1614019475.721480) can0 241#0600050405028BA2
(1614019475.721755) can0 240#000AFFEC00000000
(1614019475.722283) can0 211#0000000000000000
(1614019475.722799) can0 2C0#000AFFECFFEDFFC4
(1614019475.723087) can0 3C0#0000000000000000
(1614019475.723264) can0 4C0#0000000000000078
(1614019475.723381) can0 540#1D9506D20B7A0A89
(1614019475.723701) can0 4AA#D5B500BFFFF1FFC4
(1614019475.723840) can0 4AC#0974072C07CE0000
(1614019475.724055) can0 4BE#0000000000000000
(1614019475.724189) can0 4BF#0005FFE700000000
(1614019475.727762) can0 080#00050201009C0004
(1614019475.728079) can0 28C#0000000000000000
(1614019475.728248) can0 38C#142E000000000000
(1614019475.728424) can0 48C#0000000000000000
(1614019475.729448) can0 4C2#0605040600000000
(1614019475.730160) can0 540#0008000000001A00
(1614019475.730629) can0 213#03E8000000000000
(1614019475.730895) can0 440#00030000FFFF0000
(1614019475.731115) can0 340#FFF5FFC400000001
(1614019475.731288) can0 341#0000000000000000
(1614019475.731564) can0 241#0600050405028BA2
(1614019475.732007) can0 212#0000000000000000
(1614019475.732199) can0 540#2975072C07CD0000
(1614019475.732664) can0 210#0000000000000000
(1614019475.732848) can0 2C0#0005FFE7FFF1FFC4
(1614019475.733065) can0 3C0#0000000000000000
(1614019475.733255) can0 4C0#0000000000000078
(1614019475.733426) can0 4AA#D5B500BFFFEDFFC4
(1614019475.733595) can0 4AC#0974072C07CE0000
(1614019475.733818) can0 4BE#0000000000000000
(1614019475.734014) can0 4BF#000AFFEC00000000
(1614019475.734512) can0 211#0000000000000000
(1614019475.737735) can0 080#00050201009C0004
(1614019475.738050) can0 28C#0000000000000000
(1614019475.738216) can0 38C#142E000000000000
(1614019475.738379) can0 48C#0000000000000000
(1614019475.739609) can0 4C2#0605040600000000
(1614019475.739736) can0 213#03E8000000000000
(1614019475.740173) can0 540#0008000000001B00
(1614019475.740287) can0 212#0000000000000000
(1614019475.740740) can0 210#0000000000000000
(1614019475.740943) can0 440#00030000FFFF0000
(1614019475.741171) can0 340#FFF1FFC400000001
(1614019475.741379) can0 341#0000000000000000
(1614019475.741511) can0 240#0000FFE200000000
(1614019475.741707) can0 241#0600050405028BA2
(1614019475.742032) can0 540#1D9506D30B7A0A88
(1614019475.742539) can0 211#0000000000000000
(1614019475.742792) can0 2C0#000AFFECFFEDFFC4
(1614019475.743055) can0 3C0#0000000000000000
(1614019475.743261) can0 4C0#0000000000000078
(1614019475.743464) can0 4AA#D5B500BFFFF5FFC4
(1614019475.743639) can0 4AC#0975072C07CD0000
(1614019475.743811) can0 4BE#0000000000000000
(1614019475.744032) can0 4BF#0000FFE200000000
(1614019475.747735) can0 080#00050201009C0004
(1614019475.748112) can0 28C#0000000000000000
(1614019475.748289) can0 48C#0000000000000000
(1614019475.748408) can0 38C#142E000000000000
(1614019475.749537) can0 4C2#0605040600000000
(1614019475.750098) can0 213#03E8000000000000
(1614019475.750277) can0 540#0008000000001C00
(1614019475.750707) can0 212#0000000000000000
(1614019475.751141) can0 440#00040000FFFF0000
(1614019475.751264) can0 340#FFEDFFC400000001
(1614019475.751460) can0 341#0000000000000000
(1614019475.751532) can0 210#0000000000000000
(1614019475.751725) can0 241#0600050405028BA2
(1614019475.751930) can0 240#0000FFE700000000
(1614019475.752405) can0 211#0000000000000000
(1614019475.752813) can0 2C0#0000FFE2FFF5FFC4
(1614019475.753022) can0 3C0#0000000000000000
(1614019475.753216) can0 540#2975072D07CE0000
(1614019475.753386) can0 4C0#0000000000000078
(1614019475.753500) can0 4AA#D5AE00BFFFF1FFC4
(1614019475.753665) can0 4AC#0975072C07CD0000
(1614019475.753830) can0 4BE#0000000000000000
(1614019475.754040) can0 4BF#0000FFE200000000
(1614019475.757754) can0 080#00050201009C0004
(1614019475.758057) can0 28C#0000000000000000
(1614019475.758232) can0 38C#142E000000000000
(1614019475.758415) can0 48C#0000000000000000
(1614019475.759653) can0 4C2#0605040600000000
(1614019475.759796) can0 213#03E8000000000000
(1614019475.760296) can0 540#0008000000001D00
(1614019475.760412) can0 212#0000000000000000
(1614019475.760855) can0 210#0000000000000000
(1614019475.761073) can0 440#00030000FFFF0000
(1614019475.761244) can0 340#FFEDFFC400000001
(1614019475.761411) can0 341#0000000000000000
(1614019475.761578) can0 241#0600050405028BA2
(1614019475.762003) can0 240#0005FFE700000000
(1614019475.762121) can0 211#0000000000000000
(1614019475.762793) can0 2C0#0000FFE2FFF1FFC4
(1614019475.763038) can0 3C0#0000000000000000
(1614019475.763223) can0 540#1D9506D20B7A0A89
(1614019475.763393) can0 4C0#0000000000000078
(1614019475.763510) can0 4AA#D5AE00C5FFEDFFC4
(1614019475.763677) can0 4AC#0975072D07CE0000
(1614019475.763843) can0 4BE#0000000000000000
(1614019475.764037) can0 4BF#0000FFE700000000
(1614019475.767735) can0 080#00050201009C0005
(1614019475.768065) can0 28C#0000000000000000
(1614019475.768232) can0 38C#142E000000000000
(1614019475.768397) can0 48C#0000000000000000
(1614019475.769619) can0 4C2#0605040600000000
(1614019475.769734) can0 213#03E8000000000000
(1614019475.770172) can0 212#0000000000000000
(1614019475.770335) can0 540#0008000000001E00
(1614019475.770824) can0 210#0000000000000000
(1614019475.771073) can0 440#0003FFFFFFFF0000
(1614019475.771271) can0 340#FFF1FFC400000001
(1614019475.771439) can0 341#0000000000000000
(1614019475.771607) can0 241#0600050405028BA2
(1614019475.772032) can0 240#0005FFE300000000
(1614019475.772148) can0 211#0000000000000000
(1614019475.772798) can0 2C0#0000FFE7FFEDFFC4
(1614019475.773031) can0 3C0#0000000000000000
(1614019475.773200) can0 4C0#0000000000000078
(1614019475.773368) can0 540#2975072D07CE0000
(1614019475.773535) can0 4AA#D5AE00BFFFEDFFC4
(1614019475.773706) can0 4AC#0975072D07CE0000
(1614019475.773873) can0 4BE#0000000000000000
(1614019475.774055) can0 4BF#0005FFE700000000
(1614019475.777731) can0 080#00050201009C0004
(1614019475.778057) can0 28C#0000000000000000
(1614019475.778238) can0 38C#142E000000000000
(1614019475.778400) can0 48C#0000000000000000
(1614019475.779663) can0 4C2#0605040600000000
(1614019475.779776) can0 213#03E8000000000000
(1614019475.780277) can0 212#0000000000000000
(1614019475.780707) can0 540#0008000000001F00
(1614019475.780822) can0 210#0000000000000000
(1614019475.781329) can0 440#00030000FFFF0000
(1614019475.781445) can0 211#0000000000000000
(1614019475.781602) can0 341#0000000000000000
(1614019475.781760) can0 241#0600050405028BA2
(1614019475.782045) can0 340#FFF1FFC400000001
(1614019475.782798) can0 2C0#0005FFE7FFEDFFC4
(1614019475.783041) can0 3C0#0000000000000000
(1614019475.783213) can0 4C0#0000000000000078
(1614019475.783384) can0 240#0005FFE700000000
(1614019475.783554) can0 4AA#D5AE00BFFFF1FFC4
(1614019475.783726) can0 4AC#0975072D07CE0000
(1614019475.783897) can0 4BE#0000000000000000
(1614019475.784142) can0 4BF#0005FFE300000000
(1614019475.784568) can0 540#1D9506D20B7A0A89
(1614019475.787736) can0 080#00050201009C0004
(1614019475.788053) can0 28C#0000000000000000
(1614019475.788221) can0 38C#142E000000000000
(1614019475.788386) can0 48C#0000000000000000
(1614019475.789672) can0 4C2#0605040600000000
(1614019475.789786) can0 213#03E8000000000000
(1614019475.790262) can0 212#0000000000000000
(1614019475.790446) can0 540#0008000000002000
(1614019475.790900) can0 210#0000000000000000
(1614019475.791147) can0 440#00030000FFFF0000
(1614019475.791315) can0 340#FFF1FFC400000001
(1614019475.791482) can0 240#000AFFEC00000000
(1614019475.791650) can0 341#0000000000000000
(1614019475.791815) can0 241#0600050405028BA2
(1614019475.792259) can0 540#2975072E07CE0000
(1614019475.792387) can0 211#0000000000000000
(1614019475.792832) can0 2C0#0005FFE3FFF1FFC4
(1614019475.793033) can0 3C0#0000000000000000
(1614019475.793219) can0 4C0#0000000000000078
(1614019475.793397) can0 4AA#D5B500C2FFF1FFC4
(1614019475.793621) can0 4AC#0975072D07CE0000
(1614019475.793787) can0 4BE#0000000000000000
(1614019475.794044) can0 4BF#0005FFE700000000
(1614019475.797770) can0 080#00050201009C0004
(1614019475.798066) can0 28C#0000000000000000
(1614019475.798252) can0 38C#142E000000000000
(1614019475.798452) can0 48C#0000000000000000
(1614019475.799695) can0 4C2#0605040600000000
(1614019475.800169) can0 213#03E8000000000000
(1614019475.800398) can0 540#0008000000002100
(1614019475.800839) can0 212#0000000000000000
(1614019475.801283) can0 440#00030000FFFF0000
(1614019475.801455) can0 340#FFF1FFC400000001
(1614019475.801516) can0 210#0000000000000000
(1614019475.801677) can0 240#0000FFE200000000
(1614019475.801811) can0 341#0000000000000000
(1614019475.802016) can0 241#0600050405028BA2
(1614019475.802293) can0 540#1D9506D20B7A0A89
(1614019475.802823) can0 2C0#0005FFE7FFF1FFC4
(1614019475.802936) can0 211#0000000000000000
(1614019475.803137) can0 3C0#0000000000000000
(1614019475.803308) can0 4C0#0000000000000078
(1614019475.803482) can0 4AA#D5AE00C2FFF1FFC4
(1614019475.803651) can0 4AC#0975072E07CE0000
(1614019475.803819) can0 4BE#0000000000000000
(1614019475.804014) can0 4BF#000AFFEC00000000
(1614019475.807760) can0 080#00050201009C0004
(1614019475.808083) can0 28C#0000000000000000
(1614019475.808278) can0 38C#142E000000000000
(1614019475.808441) can0 48C#0000000000000000
(1614019475.809727) can0 213#03E8000000000000
(1614019475.809892) can0 4C2#0605040600000000
(1614019475.810371) can0 212#0000000000000000
(1614019475.810552) can0 540#0008000000002200
(1614019475.811057) can0 210#0000000000000000
(1614019475.811220) can0 440#00030000FFFF0000
(1614019475.811379) can0 340#FFF5FFC400000001
(1614019475.811783) can0 341#0000000000000000
(1614019475.811900) can0 211#0000000000000000
(1614019475.812117) can0 241#0600050405028BA2
(1614019475.812320) can0 240#0000FFE200000000
(1614019475.812815) can0 2C0#000AFFECFFF1FFC4
(1614019475.813042) can0 3C0#0000000000000000
(1614019475.813239) can0 4C0#0000000000000078
(1614019475.813407) can0 540#2975072D07CE0000
(1614019475.813621) can0 4AA#D5AE00BFFFF1FFC4
(1614019475.813836) can0 4AC#0975072E07CE0000
(1614019475.814042) can0 4BE#0000000000000000
(1614019475.814228) can0 4BF#0000FFE200000000
(1614019475.817736) can0 080#00050201009C0004
(1614019475.818075) can0 28C#0000000000000000
(1614019475.818245) can0 38C#142E000000000000
(1614019475.818409) can0 48C#0000000000000000
(1614019475.819806) can0 4C2#0605040600000000
(1614019475.820289) can0 213#03E8000000000000
(1614019475.820504) can0 540#0008000000002300
(1614019475.820941) can0 212#0000000000000000
(1614019475.821360) can0 440#00030000FFFF0000
(1614019475.821531) can0 340#FFF1FFC400000001
(1614019475.821589) can0 210#0000000000000000
(1614019475.821815) can0 341#0000000000000000
(1614019475.821994) can0 241#0600050405028BA2
(1614019475.822165) can0 240#000AFFE800000000
(1614019475.822593) can0 211#0000000000000000
(1614019475.822803) can0 2C0#0000FFE2FFF1FFC4
(1614019475.823037) can0 3C0#0000000000000000
(1614019475.823238) can0 4C0#0000000000000078
(1614019475.823424) can0 540#1D9506D20B7A0A89
(1614019475.823614) can0 4AA#D5AE00BFFFF5FFC4
(1614019475.823804) can0 4AC#0975072D07CE0000
(1614019475.824006) can0 4BE#0000000000000000
(1614019475.824193) can0 4BF#0000FFE200000000
(1614019475.827733) can0 080#00050201009C0004
(1614019475.828064) can0 28C#0000000000000000
(1614019475.828237) can0 38C#142E000000000000
(1614019475.828403) can0 48C#0000000000000000
(1614019475.829941) can0 4C2#0605040600000000
(1614019475.830081) can0 213#03E8000000000000
(1614019475.830564) can0 540#0008000000002400
(1614019475.830678) can0 212#0000000000000000
(1614019475.831131) can0 210#0000000000000000
(1614019475.831313) can0 440#00030000FFFF0000
(1614019475.831513) can0 341#0000000000000000
(1614019475.831709) can0 340#FFF1FFC400000001
(1614019475.831827) can0 241#0600050405028BA2
(1614019475.832239) can0 240#0000FFE200000000
(1614019475.832711) can0 211#0000000000000000
(1614019475.832903) can0 2C0#0000FFE2FFF5FFC4
(1614019475.833113) can0 3C0#0000000000000000
(1614019475.833301) can0 4C0#0000000000000078
(1614019475.833509) can0 4AA#D5AE00C2FFF1FFC4
(1614019475.833695) can0 540#2975072D07CD0000
(1614019475.833831) can0 4AC#0975072D07CE0000
(1614019475.834127) can0 4BE#0000000000000000
(1614019475.834246) can0 4BF#000AFFE800000000
(1614019475.837737) can0 080#00050201009C0004
(1614019475.838070) can0 28C#0000000000000000
(1614019475.838240) can0 38C#142E000000000000
(1614019475.838408) can0 48C#0000000000000000
(1614019475.839507) can0 213#03E8000000000000
(1614019475.839892) can0 4C2#0605040600000000
(1614019475.840050) can0 212#0000000000000000
(1614019475.840474) can0 210#0000000000000000
(1614019475.840634) can0 540#0008000000002500
(1614019475.841123) can0 211#0000000000000000
(1614019475.841283) can0 440#00030000FFFF0000
(1614019475.841441) can0 340#FFF5FFC400000001
(1614019475.841598) can0 341#0000000000000000
(1614019475.841758) can0 240#0005FFE700000000
(1614019475.841915) can0 241#0600050405028BA2
(1614019475.842505) can0 540#1D9506D20B7B0A89
(1614019475.842801) can0 2C0#000AFFE8FFF1FFC4
(1614019475.843100) can0 3C0#0000000000000000
(1614019475.843277) can0 4C0#0000000000000078
(1614019475.843450) can0 4AA#D5AE00BFFFF1FFC4
(1614019475.843621) can0 4AC#0975072D07CD0000
(1614019475.843801) can0 4BE#0000000000000000
(1614019475.844048) can0 4BF#0000FFE200000000
(1614019475.847737) can0 080#00050201009C0004
(1614019475.848076) can0 28C#0000000000000000
(1614019475.848285) can0 38C#142E000000000000
(1614019475.848451) can0 48C#0000000000000000
(1614019475.849728) can0 213#03E8000000000000
(1614019475.849934) can0 4C2#0605040600000000
(1614019475.850401) can0 212#0000000000000000
(1614019475.850613) can0 540#0008000000002600
(1614019475.851102) can0 210#0000000000000000
(1614019475.851348) can0 440#00030000FFFF0000
(1614019475.851516) can0 341#0000000000000000
(1614019475.851696) can0 340#FFEDFFC400000001
(1614019475.851863) can0 241#0600050405028BA2
(1614019475.852303) can0 240#000AFFEC00000000
(1614019475.852437) can0 211#0000000000000000
(1614019475.852797) can0 2C0#0000FFE2FFF1FFC4
(1614019475.853056) can0 3C0#0000000000000000
(1614019475.853260) can0 4C0#0000000000000078
(1614019475.853430) can0 4AA#D5AE00BFFFF5FFC4
(1614019475.853615) can0 540#2975072D07CE0000
(1614019475.853811) can0 4AC#0975072D07CD0000
(1614019475.853930) can0 4BE#0000000000000000
(1614019475.854137) can0 4BF#0005FFE700000000
(1614019475.857737) can0 080#00050201009C0004
(1614019475.858058) can0 28C#0000000000000000
(1614019475.858243) can0 38C#142E000000000000
(1614019475.858429) can0 48C#0000000000000000
(1614019475.859732) can0 213#03E8000000000000
(1614019475.860181) can0 4C2#0605040600000000
(1614019475.860291) can0 212#0000000000000000
(1614019475.860675) can0 540#0008000000002700
(1614019475.860787) can0 210#0000000000000000
(1614019475.861253) can0 211#0000000000000000
(1614019475.861455) can0 440#00030000FFFF0000
(1614019475.861626) can0 340#FFF1FFC400000001
(1614019475.861793) can0 341#0000000000000000
(1614019475.861908) can0 241#0600050405028BA2
(1614019475.862313) can0 240#0005FFE700000000
(1614019475.862802) can0 2C0#0005FFE7FFF5FFC4
(1614019475.863075) can0 3C0#0000000000000000
(1614019475.863244) can0 4C0#0000000000000078
(1614019475.863410) can0 4AA#D5AE00BFFFEDFFC4
(1614019475.863579) can0 540#1D9506D10B790A89
(1614019475.863749) can0 4AC#0975072D07CE0000
(1614019475.863917) can0 4BE#0000000000000000
(1614019475.864106) can0 4BF#000AFFEC00000000
(1614019475.867733) can0 080#00050201009C0005
(1614019475.868068) can0 28C#0000000000000000
(1614019475.868252) can0 38C#142E000000000000
(1614019475.868413) can0 48C#0000000000000000
(1614019475.869780) can0 213#03E8000000000000
(1614019475.870006) can0 4C2#0605040600000000
(1614019475.870450) can0 212#0000000000000000
(1614019475.870851) can0 540#0008000000002800
(1614019475.871007) can0 210#0000000000000000
(1614019475.871409) can0 440#00030000FFFF0000
(1614019475.871525) can0 211#0000000000000000
(1614019475.871689) can0 340#FFF1FFC400000001
(1614019475.871846) can0 240#0005FFE300000000
(1614019475.872022) can0 341#0000000000000000
(1614019475.872132) can0 241#0600050405028BA2
(1614019475.872449) can0 540#2974072D07CE0000
(1614019475.872804) can0 2C0#000AFFECFFEDFFC4
(1614019475.873049) can0 3C0#0000000000000000
(1614019475.873257) can0 4C0#0000000000000078
(1614019475.873434) can0 4AA#D5B500C2FFF1FFC4
(1614019475.873612) can0 4AC#0975072D07CE0000
(1614019475.873835) can0 4BE#0000000000000000
(1614019475.874028) can0 4BF#0005FFE700000000
(1614019475.877738) can0 080#00050201009C0004
(1614019475.878078) can0 28C#0000000000000000
(1614019475.878251) can0 38C#142E000000000000
(1614019475.878417) can0 48C#0000000000000000
(1614019475.880119) can0 4C2#0605040600000000
(1614019475.880250) can0 213#03E8000000000000
(1614019475.880689) can0 212#0000000000000000
(1614019475.880865) can0 540#0008000000002900
(1614019475.881341) can0 210#0000000000000000
(1614019475.881519) can0 440#00030000FFFF0000
(1614019475.881708) can0 340#FFF1FFC400000001
(1614019475.881906) can0 341#0000000000000000
(1614019475.882134) can0 241#0600050405028BA2
(1614019475.882417) can0 240#0005FFE700000000
(1614019475.882808) can0 2C0#0005FFE7FFF1FFC4
(1614019475.882919) can0 211#0000000000000000
(1614019475.883114) can0 3C0#0000000000000000
(1614019475.883285) can0 4C0#0000000000000078
(1614019475.883451) can0 4AA#D5B500BFFFF1FFC4
(1614019475.883622) can0 4AC#0974072D07CE0000
(1614019475.883790) can0 540#1D9406D20B7A0A89
(1614019475.883989) can0 4BE#0000000000000000
(1614019475.884175) can0 4BF#0005FFE300000000
(1614019475.887752) can0 080#00050201009C0004
(1614019475.888070) can0 28C#0000000000000000
(1614019475.888238) can0 38C#142E000000000000
(1614019475.888404) can0 48C#0000000000000000
(1614019475.889509) can0 213#03E8000000000000
(1614019475.890001) can0 212#0000000000000000
(1614019475.890171) can0 4C2#0605040600000000
(1614019475.890611) can0 210#0000000000000000
(1614019475.890782) can0 540#0008000000002A00
(1614019475.891297) can0 211#0000000000000000
(1614019475.891509) can0 440#00030000FFFF0000
(1614019475.891666) can0 340#FFF1FFC400000001
(1614019475.891832) can0 341#0000000000000000
(1614019475.892070) can0 240#0000FFDE00000000
(1614019475.892242) can0 241#0600050405028BA2
(1614019475.892561) can0 540#2975072D07CE0000
(1614019475.892796) can0 2C0#0005FFE3FFF1FFC4
(1614019475.893071) can0 3C0#0000000000000000
(1614019475.893242) can0 4C0#0000000000000078
(1614019475.893415) can0 4AA#D5B500C2FFF1FFC4
(1614019475.893594) can0 4AC#0974072D07CE0000
(1614019475.893828) can0 4BE#0000000000000000
(1614019475.894041) can0 4BF#0005FFE700000000
(1614019475.897740) can0 080#00050201009C0004
(1614019475.898085) can0 28C#0000000000000000
(1614019475.898262) can0 48C#0000000000000000
(1614019475.898380) can0 38C#142E000000000000
(1614019475.899673) can0 213#03E8000000000000
(1614019475.900155) can0 4C2#0605040600000000
(1614019475.900274) can0 212#0000000000000000
(1614019475.900706) can0 210#0000000000000000
(1614019475.900876) can0 540#0008000000002B00
(1614019475.901374) can0 211#0000000000000000
(1614019475.901542) can0 440#00030000FFFF0001
(1614019475.901701) can0 340#FFEDFFC400000001
(1614019475.901870) can0 240#0005FFE700000000
(1614019475.902072) can0 341#0000000000000000
(1614019475.902232) can0 241#0600050405028BA2
(1614019475.902589) can0 540#1D9506D20B7B0A89
(1614019475.902808) can0 2C0#0005FFE7FFF1FFC4
(1614019475.903047) can0 3C0#0000000000000000
(1614019475.903219) can0 4C0#0000000000000078
(1614019475.903389) can0 4AA#D5AE00C2FFF1FFC4
(1614019475.903614) can0 4AC#0975072D07CE0000
(1614019475.903846) can0 4BE#0000000000000000
(1614019475.904037) can0 4BF#0000FFDE00000000
(1614019475.907766) can0 080#00050201009C0004
(1614019475.908070) can0 28C#0000000000000000
(1614019475.908254) can0 38C#142E000000000000
(1614019475.908437) can0 48C#0000000000000000
(1614019475.910155) can0 213#03E8000000000000
(1614019475.910365) can0 4C2#0605040600000000
(1614019475.910851) can0 212#0000000000000000
(1614019475.911057) can0 540#0008000000002C00
(1614019475.911981) can0 340#FFF1FFC100000001
(1614019475.911568) can0 210#0000000000000000
(1614019475.911792) can0 440#00030000FFFF0000
(1614019475.912170) can0 341#0000000000000000
(1614019475.912285) can0 241#0600050405028BA2
(1614019475.912659) can0 240#0005FFE700000000
(1614019475.912778) can0 211#0000000000000000
(1614019475.912942) can0 2C0#0000FFDEFFF1FFC4
(1614019475.913133) can0 3C0#0000000000000000
(1614019475.913326) can0 4C0#0000000000000078
(1614019475.913512) can0 4AA#D5AE00BCFFEDFFC4
(1614019475.913679) can0 4AC#0975072D07CE0000
(1614019475.913851) can0 4BE#0000000000000000
(1614019475.914045) can0 540#2973072D07CE0000
(1614019475.914212) can0 4BF#0005FFE700000000
(1614019475.917737) can0 080#00050201009C0004
(1614019475.918067) can0 28C#0000000000000000
(1614019475.918262) can0 38C#142E000000000000
(1614019475.918449) can0 48C#0000000000000000
(1614019475.919768) can0 213#03E8000000000000
(1614019475.920243) can0 4C2#0605040600000000
(1614019475.920359) can0 212#0000000000000000
(1614019475.920787) can0 210#0000000000000000
(1614019475.920967) can0 540#0008000000002D00
(1614019475.921446) can0 211#0000000000000000
(1614019475.921609) can0 341#0000000000000000
(1614019475.921770) can0 241#0600050405028BA2
(1614019475.921928) can0 340#FFEDFFC100000001
(1614019475.922129) can0 440#00030000FFFF0000
(1614019475.922825) can0 2C0#0005FFE7FFEDFFC4
(1614019475.923049) can0 240#0000FFDE00000000
(1614019475.923228) can0 3C0#0000000000000000
(1614019475.923346) can0 4C0#0000000000000078
(1614019475.923637) can0 4AA#D5AE00BFFFF1FFC1
(1614019475.923757) can0 4AC#0973072D07CE0000
(1614019475.923942) can0 4BE#0000000000000000
(1614019475.924261) can0 4BF#0005FFE700000000
(1614019475.927755) can0 080#00050201009C0004
(1614019475.928071) can0 28C#0000000000000000
(1614019475.928247) can0 38C#142E000000000000
(1614019475.928409) can0 48C#0000000000000000
(1614019475.929417) can0 4C2#0605040600000000
(1614019475.929855) can0 213#03E8000000000000
(1614019475.930329) can0 540#0008000000002E00
(1614019475.930445) can0 212#0000000000000000
(1614019475.930873) can0 210#0000000000000000
(1614019475.931053) can0 440#00030000FFFF0000
(1614019475.931639) can0 341#0000000000000000
(1614019475.931761) can0 211#0000000000000000
(1614019475.931981) can0 241#0600050405028BA2
(1614019475.932168) can0 340#FFF1FFC400000001
(1614019475.932600) can0 240#0005FFE700000000
(1614019475.932821) can0 2C0#0005FFE7FFF1FFC1
(1614019475.933015) can0 540#2974072D07CE0000
(1614019475.933231) can0 3C0#0000000000000000
(1614019475.933408) can0 4C0#0000000000000078
(1614019475.933577) can0 4AA#D5AE00C5FFEDFFC1
(1614019475.933742) can0 4AC#0973072D07CE0000
(1614019475.933911) can0 4BE#0000000000000000
(1614019475.934126) can0 4BF#0000FFDE00000000
(1614019475.937755) can0 080#00050201009C0004
(1614019475.938088) can0 28C#0000000000000000
(1614019475.938261) can0 38C#142E000000000000
(1614019475.938431) can0 48C#0000000000000000
(1614019475.939452) can0 4C2#0605040600000000
(1614019475.939873) can0 213#03E8000000000000
(1614019475.940360) can0 540#0008000000002F00
(1614019475.940478) can0 212#0000000000000000
(1614019475.940907) can0 210#0000000000000000
(1614019475.941099) can0 440#00030000FFFF0000
(1614019475.941602) can0 211#0000000000000000
(1614019475.941764) can0 340#FFF1FFC400000001
(1614019475.941922) can0 241#0600050405028BA2
(1614019475.942104) can0 240#0005FFE700000000
(1614019475.942261) can0 341#0000000000000000
(1614019475.942805) can0 2C0#0000FFDEFFEDFFC1
(1614019475.942996) can0 540#1D9506D20B7A0A89
(1614019475.943185) can0 3C0#0000000000000000
(1614019475.943361) can0 4C0#0000000000000078
(1614019475.943530) can0 4AA#D5AE00BFFFF1FFC4
(1614019475.943699) can0 4AC#0974072D07CE0000
(1614019475.943871) can0 4BE#0000000000000000
(1614019475.944081) can0 4BF#0005FFE700000000
(1614019475.947738) can0 080#00050201009C0004
(1614019475.948081) can0 28C#0000000000000000
(1614019475.948254) can0 38C#142E000000000000
(1614019475.948439) can0 48C#0000000000000000
(1614019475.949480) can0 4C2#0605040600000000
(1614019475.949993) can0 213#03E8000000000000
(1614019475.950404) can0 540#0008000000003000
(1614019475.950522) can0 212#0000000000000000
(1614019475.950964) can0 210#0000000000000000
(1614019475.951155) can0 440#00030000FFFF0000
(1614019475.951635) can0 211#0000000000000000
(1614019475.951796) can0 340#FFEDFFC400000001
(1614019475.951976) can0 240#0005FFE700000000
(1614019475.952164) can0 241#0600050405028BA2
(1614019475.952338) can0 341#0000000000000000
(1614019475.952684) can0 540#2974072D07CE0000
(1614019475.952857) can0 2C0#0005FFE7FFF1FFC4
(1614019475.953058) can0 3C0#0000000000000000
(1614019475.953244) can0 4C0#0000000000000078
(1614019475.953429) can0 4AA#D5B500BFFFF1FFC4
(1614019475.953594) can0 4AC#0974072D07CE0000
(1614019475.953813) can0 4BE#0000000000000000
(1614019475.954059) can0 4BF#0005FFE700000000
(1614019475.957738) can0 080#00050201009C0004
(1614019475.958067) can0 28C#0000000000000000
(1614019475.958236) can0 38C#142E000000000000
(1614019475.958409) can0 48C#0000000000000000
(1614019475.959461) can0 4C2#0605040600000000
(1614019475.959907) can0 213#03E8000000000000
(1614019475.960333) can0 540#0008000000003100
(1614019475.960449) can0 212#0000000000000000
(1614019475.960888) can0 210#0000000000000000
(1614019475.961086) can0 440#00030000FFFF0000
(1614019475.961381) can0 341#0000000000000000
(1614019475.961553) can0 241#0600050405028BA2
(1614019475.961789) can0 340#FFF1FFC400000001
(1614019475.962249) can0 211#0000000000000000
(1614019475.962788) can0 240#000AFFF100000000
(1614019475.962985) can0 2C0#0005FFE7FFF1FFC4
(1614019475.963162) can0 540#1D9506D20B7A0A8A
(1614019475.963286) can0 3C0#0000000000000000
(1614019475.963456) can0 4C0#0000000000000078
(1614019475.963737) can0 4AC#0974072D07CE0000
(1614019475.963862) can0 4AA#D5B500C2FFEDFFC4
(1614019475.964054) can0 4BE#0000000000000000
(1614019475.964337) can0 4BF#0005FFE700000000
(1614019475.967738) can0 080#00050201009C0005
(1614019475.968076) can0 28C#0000000000000000
(1614019475.968263) can0 38C#142E000000000000
(1614019475.968433) can0 48C#0000000000000000
(1614019475.969593) can0 4C2#0605040600000000
(1614019475.969707) can0 213#03E8000000000000
(1614019475.970142) can0 212#0000000000000000
(1614019475.970327) can0 540#0008000000003200
(1614019475.970834) can0 210#0000000000000000
(1614019475.971042) can0 341#0000000000000000
(1614019475.971230) can0 241#0600050405028BA2
(1614019475.971434) can0 440#00030000FFFF0000
(1614019475.971874) can0 340#FFEDFFC400000001
(1614019475.972000) can0 211#0000000000000000
(1614019475.972803) can0 2C0#0005FFE7FFEDFFC4
(1614019475.973083) can0 3C0#0000000000000000
(1614019475.973268) can0 4C0#0000000000000078
(1614019475.973428) can0 240#0005FFE700000000
(1614019475.973608) can0 4AA#D5AE00BFFFF1FFC4
(1614019475.973737) can0 4AC#0974072D07CE0000
(1614019475.974049) can0 4BE#0000000000000000
(1614019475.974171) can0 4BF#000AFFF100000000
(1614019475.974348) can0 540#2974072C07CE0000
(1614019475.977738) can0 080#00050201009C0004
(1614019475.978071) can0 28C#0000000000000000
(1614019475.978242) can0 38C#142E000000000000
(1614019475.978408) can0 48C#0000000000000000
(1614019475.979571) can0 4C2#0605040600000000
(1614019475.979715) can0 213#03E8000000000000
(1614019475.980169) can0 212#0000000000000000
(1614019475.980337) can0 540#0008000000003300
(1614019475.980816) can0 210#0000000000000000
(1614019475.981234) can0 440#00030000FFFF0000
(1614019475.981350) can0 211#0000000000000000
(1614019475.981515) can0 341#0000000000000000
(1614019475.981675) can0 241#0500050405028BA2
(1614019475.981835) can0 340#FFEDFFC400000001
(1614019475.982800) can0 240#0005FFE700000000
(1614019475.983006) can0 2C0#000AFFF1FFF1FFC4
(1614019475.983198) can0 540#1D9506D20B7B0A89
(1614019475.983346) can0 3C0#0000000000000000
(1614019475.983663) can0 4C0#0000000000000078
(1614019475.983783) can0 4AA#D5AE00C2FFEDFFC4
(1614019475.983970) can0 4BE#0000000000000000
(1614019475.984244) can0 4BF#0005FFE700000000
(1614019475.987747) can0 080#00050201009C0004
(1614019475.988080) can0 28C#0000000000000000
(1614019475.988247) can0 38C#142E000000000000
(1614019475.988419) can0 48C#0000000000000000
(1614019475.989539) can0 4C2#0605040600000000
(1614019475.990407) can0 540#0008000000003400
(1614019475.990522) can0 213#03E8000000000000
(1614019475.990969) can0 212#0000000000000000
(1614019475.991152) can0 341#0000000000000000
(1614019475.991328) can0 241#0600050405028BA2
(1614019475.991496) can0 440#00030000FFFF0000
(1614019475.991985) can0 340#FFF1FFC600000001
(1614019475.992095) can0 210#0000000000000000
(1614019475.992514) can0 211#0000000000000000
(1614019475.992814) can0 2C0#0005FFE7FFEDFFC4
(1614019475.993010) can0 240#000AFFEC00000000
(1614019475.993177) can0 3C0#0000000000000000
(1614019475.993291) can0 540#2974072C07CD0000
(1614019475.993568) can0 4AA#D5AE00BFFFEDFFC4
(1614019475.993736) can0 4AC#0974072C07CE0000
(1614019475.993908) can0 4BE#0000000000000000
(1614019475.994096) can0 4BF#0005FFE700000000
(1614019475.997741) can0 080#00050201009C0004
(1614019475.998078) can0 28C#0000000000000000
(1614019475.998253) can0 38C#142E000000000000
(1614019475.998421) can0 48C#0000000000000000
(1614019475.999590) can0 4C2#0605040600000000
(1614019476.000406) can0 213#03E8000000000000
(1614019476.000572) can0 540#0008000000003500
(1614019476.001084) can0 212#0000000000000000
(1614019476.001274) can0 440#00030000FFFF0000
(1614019476.001666) can0 341#0000000000000000
(1614019476.001803) can0 241#0600050405028BA2
(1614019476.002016) can0 340#FFF1FFC400000001
(1614019476.002080) can0 210#0000000000000000
(1614019476.002503) can0 211#0000000000000000
(1614019476.002829) can0 2C0#0005FFE7FFEDFFC4
(1614019476.003036) can0 240#0000FFE200000000
(1614019476.003211) can0 3C0#0000000000000000
(1614019476.003332) can0 4C0#0000000000000078
(1614019476.003521) can0 4AA#D5AE00C2FFF1FFC6
(1614019476.003801) can0 4BE#0000000000000000
(1614019476.003918) can0 4AC#0974072C07CD0000
(1614019476.004138) can0 4BF#000AFFEC00000000
(1614019476.007762) can0 080#00050201009C0004
(1614019476.008063) can0 28C#0000000000000000
(1614019476.008261) can0 38C#142E000000000000
(1614019476.008440) can0 48C#0000000000000000
(1614019476.009663) can0 4C2#0605040600000000
(1614019476.009796) can0 213#03E8000000000000
(1614019476.010256) can0 212#0000000000000000
(1614019476.010505) can0 540#0008000000003600
(1614019476.011011) can0 210#0000000000000000
(1614019476.011174) can0 341#0000000000000000
(1614019476.011333) can0 440#00030000FFFF0000
(1614019476.011506) can0 241#0600050405028BA2
(1614019476.011978) can0 340#FFF1FFC400000001
(1614019476.012094) can0 211#0000000000000000
(1614019476.012810) can0 2C0#000AFFECFFF1FFC6
(1614019476.013012) can0 240#0005FFEC00000000
(1614019476.013210) can0 3C0#0000000000000000
(1614019476.013407) can0 4C0#0000000000000078
(1614019476.013708) can0 4AA#D5AE00BFFFF1FFC4
(1614019476.013829) can0 4AC#0974072C07CD0000
(1614019476.014049) can0 4BE#0000000000000000
(1614019476.014199) can0 4BF#0000FFE200000000
(1614019476.017747) can0 080#00050201009C0004
(1614019476.018063) can0 28C#0000000000000000
(1614019476.018232) can0 38C#142E000000000000
(1614019476.018393) can0 48C#0000000000000000
(1614019476.019605) can0 213#03E8000000000000
(1614019476.019766) can0 4C2#0605040600000000
(1614019476.020272) can0 212#0000000000000000
(1614019476.020672) can0 540#0008000000003700
(1614019476.020781) can0 210#0000000000000000
(1614019476.021247) can0 440#00030000FFFF0000
(1614019476.021360) can0 211#0000000000000000
(1614019476.021695) can0 341#0000000000000000
(1614019476.021862) can0 241#0600050405028BA2
(1614019476.022052) can0 340#FFF1FFC400000001
(1614019476.022800) can0 2C0#0000FFE2FFF1FFC4
(1614019476.022996) can0 240#000EFFF000000000
(1614019476.023183) can0 3C0#0000000000000000
(1614019476.023348) can0 4C0#0000000000000078
(1614019476.023513) can0 4AA#D5AE00C2FFF1FFC4
(1614019476.023628) can0 540#1D9506D30B7A0A8A
(1614019476.023900) can0 4AC#0973072D07CE0000
(1614019476.024037) can0 4BE#0000000000000000
(1614019476.024205) can0 4BF#0005FFEC00000000
(1614019476.027768) can0 080#00050201009C0004
(1614019476.028072) can0 28C#0000000000000000
(1614019476.028241) can0 38C#142E000000000000
(1614019476.028404) can0 48C#0000000000000000
(1614019476.029728) can0 4C2#0605040600000000
(1614019476.030197) can0 213#03E8000000000000
(1614019476.030610) can0 540#0008000000003800
(1614019476.030726) can0 212#0000000000000000
(1614019476.031197) can0 210#0000000000000000
(1614019476.031360) can0 341#0000000000000000
(1614019476.031519) can0 241#0600050405028BA2
(1614019476.031676) can0 440#00030000FFFF0000
(1614019476.032153) can0 340#FFEAFFC100000001
(1614019476.032275) can0 211#0000000000000000
(1614019476.032810) can0 2C0#0005FFECFFF1FFC4
(1614019476.033054) can0 3C0#0000000000000000
(1614019476.033223) can0 240#0005FFE700000000
(1614019476.033391) can0 4C0#0000000000000078
(1614019476.033668) can0 4AC#0973072D07CE0000
(1614019476.033784) can0 4AA#D5AE00C2FFF1FFC4
(1614019476.033984) can0 4BE#0000000000000000
(1614019476.034156) can0 4BF#000EFFF000000000
(1614019476.037767) can0 080#00050201009C0004
(1614019476.038064) can0 28C#0000000000000000
(1614019476.038252) can0 38C#142E000000000000
(1614019476.038441) can0 48C#0000000000000000
(1614019476.039741) can0 4C2#0605040600000000
(1614019476.040249) can0 213#03E8000000000000
(1614019476.040672) can0 540#0008000000003900
(1614019476.040804) can0 212#0000000000000000
(1614019476.041360) can0 440#00030000FFFF0000
(1614019476.041489) can0 210#0000000000000000
(1614019476.041897) can0 341#0000000000000000
(1614019476.042096) can0 241#0600050405028BA2
(1614019476.042260) can0 340#FFF1FFC400000001
(1614019476.042320) can0 211#0000000000000000
(1614019476.042805) can0 2C0#000EFFF0FFF1FFC4
(1614019476.043055) can0 3C0#0000000000000000
(1614019476.043234) can0 240#0000FFDE00000000
(1614019476.043404) can0 4C0#0000000000000078
(1614019476.043519) can0 4AA#D5AE00BFFFEAFFC1
(1614019476.043691) can0 4AC#0974072D07CE0000
(1614019476.043873) can0 4BE#0000000000000000
(1614019476.044064) can0 4BF#0005FFE700000000
(1614019476.044525) can0 540#1D9506D20B7A0A89
(1614019476.047780) can0 080#00050201009C0004
(1614019476.048083) can0 28C#0000000000000000
(1614019476.048269) can0 38C#142E000000000000
(1614019476.048452) can0 48C#0000000000000000
(1614019476.049712) can0 213#03E8000000000000
(1614019476.049899) can0 4C2#0605040600000000
(1614019476.050377) can0 212#0000000000000000
(1614019476.050648) can0 540#0008000000003A00
(1614019476.051092) can0 210#0000000000000000
(1614019476.051483) can0 440#00030000FFFF0000
(1614019476.051607) can0 341#0000000000000000
(1614019476.051778) can0 241#0600050405028BA2
(1614019476.051838) can0 211#0000000000000000
(1614019476.052142) can0 340#FFF1FFC400000001
(1614019476.052820) can0 2C0#0005FFE7FFEAFFC1
(1614019476.053027) can0 3C0#0000000000000000
(1614019476.053220) can0 240#0000FFE200000000
(1614019476.053395) can0 4C0#0000000000000078
(1614019476.053516) can0 4AA#D5AE00BFFFF1FFC4
(1614019476.053704) can0 4AC#0974072D07CE0000
(1614019476.053911) can0 4BE#0000000000000000
(1614019476.054103) can0 4BF#0000FFDE00000000
(1614019476.054510) can0 540#2974072C07CE0000
(1614019476.057772) can0 080#00050201009C0004
(1614019476.058087) can0 28C#0000000000000000
(1614019476.058270) can0 38C#142E000000000000
(1614019476.058437) can0 48C#0000000000000000
(1614019476.059839) can0 4C2#0605040600000000
(1614019476.060444) can0 213#03E8000000000000
(1614019476.060849) can0 540#0008000000003B00
(1614019476.060993) can0 212#0000000000000000
(1614019476.061412) can0 440#00030000FFFF0000
(1614019476.061527) can0 210#0000000000000000
(1614019476.061964) can0 211#0000000000000000
(1614019476.062147) can0 341#0000000000000000
(1614019476.062323) can0 241#0600050405028BA2
(1614019476.062500) can0 340#FFEDFFC100000001
(1614019476.062645) can0 240#0000FFE700000000
(1614019476.063025) can0 2C0#0000FFDEFFF1FFC4
(1614019476.063196) can0 4C0#0000000000000078
(1614019476.063315) can0 3C0#0000000000000000
(1614019476.063490) can0 540#1D9606D20B7A0A8A
(1614019476.063606) can0 4AA#D5AE00C2FFF1FFC4
(1614019476.063887) can0 4AC#0974072C07CE0000
(1614019476.064031) can0 4BE#0000000000000000
(1614019476.064223) can0 4BF#0000FFE200000000
(1614019476.067745) can0 080#00050201009C0005
(1614019476.068060) can0 28C#0000000000000000
(1614019476.068243) can0 38C#142E000000000000
(1614019476.068455) can0 48C#0000000000000000
(1614019476.069732) can0 213#03E8000000000000
(1614019476.069891) can0 4C2#0605040600000000
(1614019476.070385) can0 212#0000000000000000
(1614019476.070816) can0 540#0008000000003C00
(1614019476.070945) can0 210#0000000000000000
(1614019476.071467) can0 440#0003FFFFFFFF0000
(1614019476.071596) can0 211#0000000000000000
(1614019476.072190) can0 341#0000000000000000
(1614019476.072368) can0 340#FFEDFFC400000001
(1614019476.072571) can0 240#0005FFE700000000
(1614019476.072708) can0 241#0600050405028BA2
(1614019476.073031) can0 2C0#0000FFE2FFF1FFC4
(1614019476.073164) can0 3C0#0000000000000000
(1614019476.073338) can0 4C0#0000000000000078
(1614019476.073455) can0 540#2974072C07CD0000
(1614019476.073641) can0 4AC#0974072C07CE0000
(1614019476.073914) can0 4BE#0000000000000000
(1614019476.074124) can0 4BF#0000FFE700000000
(1614019476.077759) can0 080#00050201009C0004
(1614019476.078078) can0 28C#0000000000000000
(1614019476.078286) can0 48C#0000000000000000
(1614019476.078402) can0 38C#142E000000000000
(1614019476.079837) can0 213#03E8000000000000
(1614019476.080031) can0 4C2#0605040600000000
(1614019476.080522) can0 212#0000000000000000
(1614019476.080961) can0 540#0008000000003D00
(1614019476.081080) can0 210#0000000000000000
(1614019476.081492) can0 440#00030000FFFF0000
(1614019476.081606) can0 211#0000000000000000
(1614019476.082195) can0 341#0000000000000000
(1614019476.082400) can0 340#FFF1FFC400000001
(1614019476.082589) can0 240#0005FFE700000000
(1614019476.082727) can0 241#0600050405028BA2
(1614019476.083060) can0 2C0#0000FFE7FFEDFFC1
(1614019476.083183) can0 3C0#0000000000000000
(1614019476.083350) can0 540#1D9506D20B7A0A89
(1614019476.083624) can0 4AC#0974072C07CD0000
(1614019476.083741) can0 4AA#D5B500C2FFEDFFC4
(1614019476.083906) can0 4BE#0000000000000000
(1614019476.084114) can0 4BF#0005FFE700000000
(1614019476.087748) can0 080#00050201009C0004
(1614019476.088074) can0 28C#0000000000000000
(1614019476.088247) can0 38C#142E000000000000
(1614019476.088410) can0 48C#0000000000000000
(1614019476.089846) can0 213#03E8000000000000
(1614019476.090031) can0 4C2#0605040600000000
(1614019476.090461) can0 212#0000000000000000
(1614019476.090885) can0 540#0008000000003E00
(1614019476.091024) can0 210#0000000000000000
(1614019476.091481) can0 211#0000000000000000
(1614019476.091658) can0 440#00030000FFFF0000
(1614019476.092264) can0 340#FFF1FFC400000001
(1614019476.092440) can0 341#0000000000000000
(1614019476.092611) can0 240#0005FFE300000000
(1614019476.092733) can0 241#0600050405028BA2
(1614019476.092906) can0 2C0#0005FFE7FFEDFFC4
(1614019476.093226) can0 4C0#0000000000000078
(1614019476.093344) can0 3C0#0000000000000000
(1614019476.093523) can0 4AA#D5B500BFFFF1FFC4
(1614019476.093692) can0 4AC#0974072C07CD0000
(1614019476.093870) can0 4BE#0000000000000000
(1614019476.094073) can0 4BF#0005FFE700000000
(1614019476.097740) can0 080#00050201009C0004
(1614019476.098040) can0 28C#0000000000000000
(1614019476.098218) can0 38C#142E000000000000
(1614019476.098383) can0 48C#0000000000000000
(1614019476.099675) can0 213#03E8000000000000
(1614019476.100097) can0 4C2#0605040600000000
(1614019476.100221) can0 212#0000000000000000
(1614019476.100658) can0 210#0000000000000000
(1614019476.100868) can0 540#0008000000003F00
(1614019476.101376) can0 341#0000000000000000
(1614019476.101519) can0 211#0000000000000000
(1614019476.101692) can0 241#0600050405028BA2
(1614019476.101888) can0 440#00030000FFFF0000
(1614019476.102817) can0 2C0#0005FFE7FFF1FFC4
(1614019476.103015) can0 340#FFF1FFC400000001
(1614019476.103206) can0 3C0#0000000000000000
(1614019476.103377) can0 4C0#0000000000000078
(1614019476.103560) can0 4AA#D5AE00C2FFF1FFC4
(1614019476.103870) can0 4BE#0000000000000000
(1614019476.104023) can0 4AC#0974072C07CE0000
(1614019476.104202) can0 4BF#0005FFE300000000
(1614019476.104909) can0 540#1D9606D20B7A0A89
(1614019476.107763) can0 080#00050201009C0004
(1614019476.108079) can0 28C#0000000000000000
(1614019476.108280) can0 38C#142E000000000000
(1614019476.108455) can0 48C#0000000000000000
(1614019476.109639) can0 213#03E8000000000000
(1614019476.110057) can0 4C2#0605040600000000
(1614019476.110206) can0 212#0000000000000000
(1614019476.110898) can0 540#0008000000004000
(1614019476.110656) can0 210#0000000000000000
(1614019476.111118) can0 341#0000000000000000
(1614019476.111325) can0 241#0600050405028BA2
(1614019476.111716) can0 440#00030000FFFF0000
(1614019476.111830) can0 211#0000000000000000
(1614019476.112604) can0 340#FFF1FFC400000001
(1614019476.112829) can0 2C0#0005FFE3FFF1FFC4
(1614019476.113040) can0 3C0#0000000000000000
(1614019476.113241) can0 4C0#0000000000000078
(1614019476.113411) can0 240#0005FFE700000000
(1614019476.113582) can0 4AA#D5AE00C2FFF1FFC4
(1614019476.113715) can0 4AC#0974072C07CE0000
(1614019476.113906) can0 4BE#0000000000000000
(1614019476.114110) can0 4BF#0005FFE300000000
(1614019476.114707) can0 540#2974072C07CE0000
(1614019476.117773) can0 080#00050201009C0004
(1614019476.118070) can0 28C#0000000000000000
(1614019476.118289) can0 38C#142E000000000000
(1614019476.118459) can0 48C#0000000000000000
(1614019476.119906) can0 213#03E8000000000000
(1614019476.120103) can0 4C2#0605040600000000
(1614019476.120606) can0 212#0000000000000000
(1614019476.121046) can0 540#0008000000004100
(1614019476.121161) can0 210#0000000000000000
(1614019476.121557) can0 341#0000000000000000
(1614019476.121686) can0 241#0600050405028BA2
(1614019476.121867) can0 440#00030000FFFF0000
(1614019476.121926) can0 211#0000000000000000
(1614019476.122690) can0 340#FFF1FFC400000001
(1614019476.122871) can0 2C0#0005FFE3FFF1FFC4
(1614019476.123061) can0 3C0#0000000000000000
(1614019476.123254) can0 4C0#0000000000000078
(1614019476.123425) can0 240#0000FFE200000000
(1614019476.123592) can0 4AA#D5AE00C2FFF1FFC4
(1614019476.123760) can0 4AC#0974072C07CE0000
(1614019476.123936) can0 4BE#0000000000000000
(1614019476.124130) can0 4BF#0005FFE700000000
(1614019476.124776) can0 540#1D9406D20B7A0A88
(1614019476.127742) can0 080#00050201009C0004
(1614019476.128066) can0 28C#0000000000000000
(1614019476.128251) can0 38C#142E000000000000
(1614019476.128413) can0 48C#0000000000000000
(1614019476.129882) can0 213#03E8000000000000
(1614019476.130130) can0 4C2#0605040600000000
(1614019476.130576) can0 212#0000000000000000
(1614019476.131012) can0 540#0008000000004200
(1614019476.131184) can0 341#0000000000000000
(1614019476.131244) can0 210#0000000000000000
(1614019476.131405) can0 241#0600050405028BA2
(1614019476.131796) can0 440#00030000FFFF0000
(1614019476.131908) can0 211#0000000000000000
(1614019476.132683) can0 340#FFF1FFC400000001
(1614019476.132849) can0 2C0#0005FFE7FFF1FFC4
(1614019476.133030) can0 3C0#0000000000000000
(1614019476.133196) can0 4C0#0000000000000078
(1614019476.133413) can0 240#0005FFE700000000
(1614019476.133582) can0 4AA#D5B500BFFFF1FFC4
(1614019476.133753) can0 4AC#0974072C07CE0000
(1614019476.133920) can0 4BE#0000000000000000
(1614019476.134125) can0 4BF#0000FFE200000000
(1614019476.134782) can0 540#2974072D07CE0000
(1614019476.137760) can0 080#00050201009D0004
(1614019476.138083) can0 28C#0000000000000000
(1614019476.138259) can0 38C#142E000000000000
(1614019476.138426) can0 48C#0000000000000000
(1614019476.140002) can0 213#03E8000000000000
(1614019476.140163) can0 4C2#0605040600000000
(1614019476.140590) can0 212#0000000000000000
(1614019476.141054) can0 540#0008000000004300
(1614019476.141168) can0 210#0000000000000000
(1614019476.141593) can0 341#0000000000000000
(1614019476.141706) can0 211#0000000000000000
(1614019476.141866) can0 241#0600050405028BA2
(1614019476.142049) can0 440#00030000FFFF0000
(1614019476.142606) can0 340#FFF1FFC400000001
(1614019476.142880) can0 2C0#0000FFE2FFF1FFC4
(1614019476.143092) can0 3C0#0000000000000000
(1614019476.143256) can0 4C0#0000000000000078
(1614019476.143418) can0 4AA#D5B500BFFFF1FFC4
(1614019476.143579) can0 240#0005FFE700000000
(1614019476.143741) can0 4AC#0974072D07CE0000
(1614019476.143905) can0 4BE#0000000000000000
(1614019476.144076) can0 4BF#0005FFE700000000
(1614019476.144868) can0 540#1D9506D20B7B0A88
(1614019476.147745) can0 080#00050201009C0004
(1614019476.148071) can0 28C#0000000000000000
(1614019476.148289) can0 38C#142E000000000000
(1614019476.148473) can0 48C#0000000000000000
(1614019476.149609) can0 213#03E8000000000000
(1614019476.150099) can0 212#0000000000000000
(1614019476.150263) can0 4C2#0605040600000000
(1614019476.150768) can0 210#0000000000000000
(1614019476.151178) can0 540#0008000000004400
(1614019476.151313) can0 341#0000000000000000
(1614019476.151486) can0 241#0600050405028BA2
(1614019476.151547) can0 211#0000000000000000
(1614019476.151760) can0 440#00030000FFFF0000
(1614019476.152799) can0 340#FFF1FFC600000001
(1614019476.153032) can0 2C0#0005FFE7FFF1FFC4
(1614019476.153223) can0 3C0#0000000000000000
(1614019476.153405) can0 4C0#0000000000000078
(1614019476.153581) can0 4AA#D5AE00BFFFF1FFC4
(1614019476.153704) can0 240#0000FFE200000000
(1614019476.154042) can0 4BE#0000000000000000
(1614019476.154233) can0 4BF#0005FFE700000000
(1614019476.154874) can0 540#2974072C07CE0000
(1614019476.157744) can0 080#00050201009C0004
(1614019476.158097) can0 28C#0000000000000000
(1614019476.158263) can0 38C#142E000000000000
(1614019476.158427) can0 48C#0000000000000000
(1614019476.159824) can0 213#03E8000000000000
(1614019476.160232) can0 4C2#0605040600000000
(1614019476.160347) can0 212#0000000000000000
(1614019476.160786) can0 210#0000000000000000
(1614019476.161202) can0 540#0008000000004500
(1614019476.161311) can0 211#0000000000000000
(1614019476.161692) can0 341#0000000000000000
(1614019476.161858) can0 440#00030000FFFE0000
(1614019476.162077) can0 241#0600050405028BA2
(1614019476.162726) can0 340#FFF1FFC400000001
(1614019476.162895) can0 2C0#0005FFE7FFF1FFC4
(1614019476.163116) can0 3C0#0000000000000000
(1614019476.163322) can0 4C0#0000000000000078
(1614019476.163508) can0 4AA#D5B500C2FFF1FFC6
(1614019476.163706) can0 240#0005FFE700000000
(1614019476.163896) can0 4AC#0974072C07CE0000
(1614019476.164040) can0 4BE#0000000000000000
(1614019476.164305) can0 4BF#0000FFE200000000
(1614019476.164983) can0 540#1D9506D20B7A0A8A
(1614019476.167753) can0 080#00050201009C0005
(1614019476.168083) can0 28C#0000000000000000
(1614019476.168261) can0 38C#142E000000000000
(1614019476.168426) can0 48C#0000000000000000
(1614019476.169936) can0 213#03E8000000000000
(1614019476.170358) can0 4C2#0605040600000000
(1614019476.170483) can0 212#0000000000000000
(1614019476.170906) can0 210#0000000000000000
(1614019476.171163) can0 540#0008000000004600
(1614019476.171340) can0 341#0000000000000000
(1614019476.171506) can0 241#0600050405028BA2
(1614019476.171969) can0 440#00030000FFFF0000
(1614019476.172092) can0 211#0000000000000000
(1614019476.172810) can0 2C0#0000FFE2FFF1FFC6
(1614019476.173009) can0 340#FFF1FFC400000001
(1614019476.173205) can0 3C0#0000000000000000
(1614019476.173411) can0 4C0#0000000000000078
(1614019476.173582) can0 4AA#D5AE00BFFFF1FFC4
(1614019476.173705) can0 240#0005FFE300000000
(1614019476.173872) can0 4BE#0000000000000000
(1614019476.174172) can0 4BF#0005FFE700000000
(1614019476.175001) can0 540#2973072D07CE0000
(1614019476.177766) can0 080#00050201009C0004
(1614019476.178084) can0 28C#0000000000000000
(1614019476.178250) can0 38C#142E000000000000
(1614019476.178415) can0 48C#0000000000000000
(1614019476.179836) can0 213#03E8000000000000
(1614019476.180278) can0 4C2#0605040600000000
(1614019476.180389) can0 212#0000000000000000
(1614019476.180811) can0 210#0000000000000000
(1614019476.181231) can0 540#0008000000004700
(1614019476.181344) can0 211#0000000000000000
(1614019476.181863) can0 341#0000000000000000
(1614019476.182057) can0 440#0003000000000000
(1614019476.182254) can0 241#0600050405028BA2
(1614019476.182591) can0 340#FFEDFFC400000001
(1614019476.182815) can0 2C0#0005FFE7FFF1FFC4
(1614019476.183040) can0 3C0#0000000000000000
(1614019476.183206) can0 4C0#0000000000000078
(1614019476.183430) can0 4AA#D5B500BFFFF1FFC4
(1614019476.183595) can0 240#0005FFE300000000
(1614019476.183758) can0 4AC#0973072D07CE0000
(1614019476.183924) can0 4BE#0000000000000000
(1614019476.184107) can0 4BF#0005FFE300000000
(1614019476.184999) can0 540#1D9506D20B7B0A89
(1614019476.187748) can0 080#00050201009C0004
(1614019476.188084) can0 28C#0000000000000000
(1614019476.188250) can0 38C#142E000000000000
(1614019476.188416) can0 48C#0000000000000000
(1614019476.189231) can0 4C2#0605040600000000
(1614019476.189791) can0 213#03E8000000000000
(1614019476.190212) can0 540#0008000000004800
(1614019476.190326) can0 212#0000000000000000
(1614019476.190761) can0 210#0000000000000000
(1614019476.191169) can0 440#00030000FFFF0000
(1614019476.191283) can0 211#0000000000000000
(1614019476.191497) can0 341#0000000000000000
(1614019476.191657) can0 241#0600050405028BA2
(1614019476.191811) can0 340#FFF1FFC400000001
(1614019476.192792) can0 240#0000FFE200000000
(1614019476.193024) can0 2C0#0005FFE3FFF1FFC4
(1614019476.193226) can0 540#2975072C07CE0000
(1614019476.193559) can0 4AA#D5AE00BFFFEDFFC4
(1614019476.193679) can0 4C0#0000000000000078
(1614019476.193872) can0 4AC#0973072D07CE0000
(1614019476.194194) can0 4BF#0005FFE300000000
(1614019476.194311) can0 4BE#0000000000000000
(1614019476.197783) can0 080#00050201009D0004
(1614019476.198061) can0 28C#0000000000000000
(1614019476.198238) can0 38C#142E000000000000
(1614019476.198406) can0 48C#0000000000000000
(1614019476.199225) can0 4C2#0605040600000000
(1614019476.199792) can0 213#03E8000000000000
(1614019476.200224) can0 540#0008000000004900
(1614019476.200340) can0 212#0000000000000000
(1614019476.200768) can0 210#0000000000000000
(1614019476.201174) can0 440#00030000FFFF0000
(1614019476.201303) can0 211#0000000000000000
(1614019476.201791) can0 340#FFF1FFC400000001
(1614019476.202012) can0 240#000AFFE800000000
(1614019476.202183) can0 341#0000000000000000
(1614019476.202302) can0 241#0600050404028BA2
(1614019476.202674) can0 540#1D9506D20B7A0A89
(1614019476.202844) can0 2C0#0005FFE3FFEDFFC4
(1614019476.203036) can0 3C0#0000000000000000
(1614019476.203207) can0 4C0#0000000000000078
(1614019476.203431) can0 4AA#D5B500BFFFF1FFC4
(1614019476.203602) can0 4AC#0975072C07CE0000
(1614019476.203826) can0 4BE#0000000000000000
(1614019476.204036) can0 4BF#0000FFE200000000
(1614019476.207754) can0 080#00050201009C0004
(1614019476.208078) can0 28C#0000000000000000
(1614019476.208245) can0 38C#142E000000000000
(1614019476.208411) can0 48C#0000000000000000
(1614019476.209226) can0 4C2#0605040600000000
(1614019476.210330) can0 540#0008000000004A00
(1614019476.210443) can0 213#03E8000000000000
(1614019476.210875) can0 212#0000000000000000
(1614019476.211128) can0 440#00030000FFFF0000
(1614019476.211566) can0 210#0000000000000000
(1614019476.211772) can0 341#0000000000000000
(1614019476.211928) can0 241#0600050405028BA2
(1614019476.212120) can0 340#FFF5FFC400000001
(1614019476.212333) can0 240#000AFFEC00000000
(1614019476.212810) can0 2C0#0000FFE2FFF1FFC4
(1614019476.212982) can0 211#0000000000000000
(1614019476.213145) can0 3C0#0000000000000000
(1614019476.213340) can0 4C0#0000000000000078
(1614019476.213465) can0 540#2974072D07CE0000
(1614019476.213786) can0 4AA#D5AE00C2FFF1FFC4
(1614019476.213920) can0 4AC#0975072C07CE0000
(1614019476.214116) can0 4BF#000AFFE800000000
(1614019476.217745) can0 080#00050201009C0004
(1614019476.218080) can0 28C#0000000000000000
(1614019476.218270) can0 38C#142E000000000000
(1614019476.218477) can0 48C#0000000000000000
(1614019476.219227) can0 4C2#0605040600000000
(1614019476.220200) can0 540#0008000000004B00
(1614019476.220315) can0 213#03E8000000000000
(1614019476.220797) can0 212#0000000000000000
(1614019476.221245) can0 440#00030000FFFF0000
(1614019476.221358) can0 210#0000000000000000
(1614019476.221785) can0 340#FFF1FFC400000001
(1614019476.221898) can0 211#0000000000000000
(1614019476.222101) can0 240#000AFFEC00000000
(1614019476.222289) can0 540#1D9506D20B7B0A89
(1614019476.222598) can0 241#0600050405028BA2
(1614019476.222822) can0 2C0#000AFFE8FFF1FFC4
(1614019476.223071) can0 3C0#0000000000000000
(1614019476.223262) can0 4C0#0000000000000078
(1614019476.223423) can0 4AA#D5AE00BFFFF5FFC4
(1614019476.223581) can0 4AC#0974072D07CE0000
(1614019476.223790) can0 4BE#0000000000000000
(1614019476.224008) can0 4BF#000AFFEC00000000
(1614019476.227760) can0 080#00050201009D0004
(1614019476.228087) can0 28C#0000000000000000
(1614019476.228274) can0 38C#142E000000000000
(1614019476.228454) can0 48C#0000000000000000
(1614019476.229252) can0 4C2#0605040600000000
(1614019476.229759) can0 213#03E8000000000000
(1614019476.230225) can0 212#0000000000000000
(1614019476.230448) can0 540#0008000000004C00
(1614019476.230876) can0 210#0000000000000000
(1614019476.231302) can0 440#00030000FFFF0000
(1614019476.231415) can0 211#0000000000000000
(1614019476.231812) can0 341#0000000000000000
(1614019476.232007) can0 241#0600050405028BA2
(1614019476.232179) can0 340#FFF1FFC400000001
(1614019476.232809) can0 2C0#000AFFECFFF5FFC4
(1614019476.233060) can0 3C0#0000000000000000
(1614019476.233245) can0 240#0005FFE700000000
(1614019476.233421) can0 4C0#0000000000000078
(1614019476.233541) can0 4AA#D5AE00BFFFF1FFC4
(1614019476.233817) can0 4AC#0974072D07CE0000
(1614019476.233936) can0 4BE#0000000000000000
(1614019476.234126) can0 4BF#000AFFEC00000000
(1614019476.234244) can0 540#2973072C07CE0000
(1614019476.237766) can0 080#00050201009C0004
(1614019476.238070) can0 28C#0000000000000000
(1614019476.238254) can0 38C#142E000000000000
(1614019476.238441) can0 48C#0000000000000000
(1614019476.239288) can0 4C2#0605040600000000
(1614019476.239776) can0 213#03E8000000000000
(1614019476.240208) can0 540#0008000000004D00
(1614019476.240324) can0 212#0000000000000000
(1614019476.240837) can0 210#0000000000000000
(1614019476.241253) can0 440#00030000FFFF0000
(1614019476.241388) can0 211#0000000000000000
(1614019476.241575) can0 341#0000000000000000
(1614019476.241757) can0 241#0600050405028BA2
(1614019476.241991) can0 340#FFF1FFC400000001
(1614019476.242813) can0 2C0#000AFFECFFF1FFC4
(1614019476.243038) can0 240#0005FFEC00000000
(1614019476.243215) can0 3C0#0000000000000000
(1614019476.243491) can0 4AA#D5B500BFFFF1FFC4
(1614019476.243607) can0 4C0#0000000000000078
(1614019476.243777) can0 4AC#0973072C07CE0000
(1614019476.244068) can0 4BF#0005FFE700000000
(1614019476.244205) can0 4BE#0000000000000000
(1614019476.247747) can0 080#00050201009C0004
(1614019476.248102) can0 28C#0000000000000000
(1614019476.248267) can0 38C#142E000000000000
(1614019476.248460) can0 48C#0000000000000000
(1614019476.249305) can0 4C2#0605040600000000
(1614019476.249858) can0 213#03E8000000000000
(1614019476.250292) can0 540#0008000000004E00
(1614019476.250433) can0 212#0000000000000000
(1614019476.250880) can0 210#0000000000000000
(1614019476.251105) can0 341#0000000000000000
(1614019476.251279) can0 440#00030000FFFF0000
(1614019476.251398) can0 241#0600050405028BA2
(1614019476.251848) can0 211#0000000000000000
(1614019476.252203) can0 340#FFF1FFC400000001
(1614019476.252812) can0 2C0#0005FFE7FFF1FFC4
(1614019476.253005) can0 240#0005FFE700000000
(1614019476.253179) can0 3C0#0000000000000000
(1614019476.253349) can0 4C0#0000000000000078
(1614019476.253521) can0 4AA#D5AE00BFFFF1FFC4
(1614019476.253689) can0 4AC#0973072C07CE0000
(1614019476.253858) can0 4BE#0000000000000000
(1614019476.254067) can0 540#2974072C07CF0000
(1614019476.254253) can0 4BF#0005FFEC00000000
(1614019476.257746) can0 080#00050201009D0004
(1614019476.258089) can0 28C#0000000000000000
(1614019476.258260) can0 38C#142E000000000000
(1614019476.258427) can0 48C#0000000000000000
(1614019476.259370) can0 4C2#0605040600000000
(1614019476.259831) can0 213#03E8000000000000
(1614019476.260327) can0 540#0008000000004F00
(1614019476.260441) can0 212#0000000000000000
(1614019476.260893) can0 210#0000000000000000
(1614019476.261070) can0 341#0000000000000000
(1614019476.261243) can0 241#0600050405028BA2
(1614019476.261427) can0 440#00030000FFFF0000
(1614019476.261925) can0 211#0000000000000000
(1614019476.262289) can0 340#FFF1FFC400000001
(1614019476.262836) can0 2C0#0005FFECFFF1FFC4
(1614019476.263029) can0 240#0005FFE700000000
(1614019476.263217) can0 3C0#0000000000000000
(1614019476.263403) can0 4AA#D5AE00C2FFF1FFC4
(1614019476.263521) can0 4C0#0000000000000078
(1614019476.263688) can0 4AC#0974072C07CF0000
(1614019476.263855) can0 4BE#0000000000000000
(1614019476.264046) can0 540#1D9606D10B7A0A89
(1614019476.264215) can0 4BF#0005FFE700000000
(1614019476.267767) can0 080#00050201009C0005
(1614019476.268063) can0 28C#0000000000000000
(1614019476.268231) can0 38C#142E000000000000
(1614019476.268397) can0 48C#0000000000000000
(1614019476.269542) can0 4C2#0605040600000000
(1614019476.269653) can0 213#03E8000000000000
(1614019476.270131) can0 212#0000000000000000
(1614019476.270345) can0 540#0008000000005000
(1614019476.270783) can0 210#0000000000000000
(1614019476.271235) can0 341#0000000000000000
(1614019476.271353) can0 241#0600050405028BA2
(1614019476.271515) can0 440#00030000FFFF0000
(1614019476.271574) can0 211#0000000000000000
(1614019476.272270) can0 340#FFF1FFC400000001
(1614019476.272807) can0 2C0#0005FFE7FFF1FFC4
(1614019476.272997) can0 240#000AFFEC00000000
(1614019476.273167) can0 3C0#0000000000000000
(1614019476.273341) can0 4C0#0000000000000078
(1614019476.273509) can0 4AA#D5AE00BFFFF1FFC4
(1614019476.273626) can0 540#2973072D07CE0000
(1614019476.273897) can0 4AC#0974072C07CF0000
(1614019476.274033) can0 4BE#0000000000000000
(1614019476.274242) can0 4BF#0005FFE700000000
(1614019476.277743) can0 080#00050201009C0004
(1614019476.278070) can0 28C#0000000000000000
(1614019476.278236) can0 38C#142E000000000000
(1614019476.278402) can0 48C#0000000000000000
(1614019476.279446) can0 4C2#0605040600000000
(1614019476.279901) can0 213#03E8000000000000
(1614019476.280385) can0 540#0008000000005100
(1614019476.280498) can0 212#0000000000000000
(1614019476.280944) can0 210#0000000000000000
(1614019476.281142) can0 341#0000000000000000
(1614019476.281349) can0 440#00030000FFFF0000
(1614019476.281540) can0 241#0600050405028BA2
(1614019476.282058) can0 211#0000000000000000
(1614019476.282224) can0 340#FFF1FFC100000001
(1614019476.282827) can0 2C0#0005FFE7FFF1FFC4
(1614019476.283028) can0 240#0005FFE700000000
(1614019476.283233) can0 3C0#0000000000000000
(1614019476.283407) can0 4C0#0000000000000078
(1614019476.283527) can0 540#1D9606D10B7A0A89
(1614019476.283698) can0 4AA#D5B500BFFFF1FFC4
(1614019476.283813) can0 4AC#0973072D07CE0000
(1614019476.284148) can0 4BE#0000000000000000
(1614019476.284303) can0 4BF#000AFFEC00000000
(1614019476.287770) can0 080#00050201009C0004
(1614019476.288085) can0 28C#0000000000000000
(1614019476.288275) can0 38C#142E000000000000
(1614019476.288445) can0 48C#0000000000000000
(1614019476.289544) can0 4C2#0605040600000000
(1614019476.289656) can0 213#03E8000000000000
(1614019476.290073) can0 212#0000000000000000
(1614019476.290475) can0 540#0008000000005200
(1614019476.290593) can0 210#0000000000000000
(1614019476.291044) can0 211#0000000000000000
(1614019476.291207) can0 341#0000000000000000
(1614019476.291365) can0 440#00040000FFFF0000
(1614019476.291522) can0 241#0600050405028BA2
(1614019476.292232) can0 340#FFF1FFC400000001
(1614019476.292807) can0 2C0#000AFFECFFF1FFC4
(1614019476.293067) can0 3C0#0000000000000000
(1614019476.293258) can0 4C0#0000000000000078
(1614019476.293374) can0 240#000AFFEC00000000
(1614019476.293541) can0 4AA#D5AE00BCFFF1FFC1
(1614019476.293812) can0 4BE#0000000000000000
(1614019476.293929) can0 4AC#0973072D07CE0000
(1614019476.294134) can0 4BF#0005FFE700000000
(1614019476.294529) can0 540#2975072E07CD0000
(1614019476.297768) can0 080#00050201009C0004
(1614019476.298097) can0 28C#0000000000000000
(1614019476.298279) can0 38C#142E000000000000
(1614019476.298449) can0 48C#0000000000000000
(1614019476.299500) can0 4C2#0605040600000000
(1614019476.300226) can0 213#03E8000000000000
(1614019476.300455) can0 540#0008000000005300
(1614019476.300908) can0 212#0000000000000000
(1614019476.301337) can0 341#0000000000000000
(1614019476.301449) can0 210#0000000000000000
(1614019476.301608) can0 241#0600050405028BA2
(1614019476.301764) can0 440#00030000FFFF0000
(1614019476.302181) can0 340#FFF1FFC400000001
(1614019476.302304) can0 211#0000000000000000
(1614019476.302812) can0 2C0#0005FFE7FFF1FFC1
(1614019476.303073) can0 3C0#0000000000000000
(1614019476.303248) can0 4C0#0000000000000078
(1614019476.303365) can0 240#0005FFE700000000
(1614019476.303532) can0 4AA#D5AE00BFFFF1FFC4
(1614019476.303813) can0 4BE#0000000000000000
(1614019476.303932) can0 4AC#0975072E07CD0000
(1614019476.304170) can0 4BF#000AFFEC00000000
(1614019476.304293) can0 540#1D9506D00B7A0A89
(1614019476.307749) can0 080#00050201009C0004
(1614019476.308075) can0 28C#0000000000000000
(1614019476.308269) can0 38C#142E000000000000
(1614019476.308456) can0 48C#0000000000000000
(1614019476.309570) can0 4C2#0605040600000000
(1614019476.310069) can0 213#03E8000000000000
(1614019476.310513) can0 540#0008000000005400
(1614019476.310627) can0 212#0000000000000000
(1614019476.311073) can0 210#0000000000000000
(1614019476.311467) can0 341#0000000000000000
(1614019476.311656) can0 440#00030000FFFF0000
(1614019476.311745) can0 211#0000000000000000
(1614019476.311913) can0 241#0600050405028BA2
(1614019476.312167) can0 340#FFEDFFC400000001
(1614019476.312811) can0 2C0#000AFFECFFF1FFC4
(1614019476.313061) can0 3C0#0000000000000000
(1614019476.313252) can0 240#0005FFEC00000000
(1614019476.313426) can0 4C0#0000000000000078
(1614019476.313542) can0 4AA#D5B500C2FFF1FFC4
(1614019476.313812) can0 4AC#0975072E07CD0000
(1614019476.313932) can0 4BE#0000000000000000
(1614019476.314132) can0 4BF#0005FFE700000000
(1614019476.314380) can0 540#2974072C07CE0000
(1614019476.317749) can0 080#00050201009C0004
(1614019476.318085) can0 28C#0000000000000000
(1614019476.318274) can0 38C#142E000000000000
(1614019476.318445) can0 48C#0000000000000000
(1614019476.319742) can0 4C2#0605040600000000
(1614019476.319856) can0 213#03E8000000000000
(1614019476.320342) can0 212#0000000000000000
(1614019476.320587) can0 540#0008000000005500
(1614019476.321076) can0 210#0000000000000000
(1614019476.321500) can0 440#00030000FFFF0000
(1614019476.321677) can0 341#0000000000000000
(1614019476.321845) can0 241#0600050405028BA2
(1614019476.321905) can0 211#0000000000000000
(1614019476.322183) can0 340#FFF1FFC400000001
(1614019476.322813) can0 2C0#0005FFE7FFF1FFC4
(1614019476.323096) can0 3C0#0000000000000000
(1614019476.323295) can0 240#0005FFE700000000
(1614019476.323480) can0 4C0#0000000000000078
(1614019476.323616) can0 4AA#D5B500BFFFEDFFC4
(1614019476.323939) can0 4AC#0974072C07CE0000
(1614019476.324086) can0 4BE#0000000000000000
(1614019476.324284) can0 4BF#0005FFEC00000000
(1614019476.324561) can0 540#1D9506D20B7A0A8A
(1614019476.327764) can0 080#00050201009C0004
(1614019476.328091) can0 28C#0000000000000000
(1614019476.328274) can0 38C#142E000000000000
(1614019476.328442) can0 48C#0000000000000000
(1614019476.329653) can0 4C2#0605040600000000
(1614019476.330111) can0 213#03E8000000000000
(1614019476.330532) can0 212#0000000000000000
(1614019476.330725) can0 540#0008000000005600
(1614019476.331313) can0 210#0000000000000000
(1614019476.331495) can0 440#00030000FFFF0000
(1614019476.331665) can0 341#0000000000000000
(1614019476.331868) can0 241#0600050405028BA2
(1614019476.332377) can0 340#FFEDFFC100000001
(1614019476.332492) can0 211#0000000000000000
(1614019476.332821) can0 2C0#0005FFECFFEDFFC4
(1614019476.333029) can0 3C0#0000000000000000
(1614019476.333199) can0 4C0#0000000000000078
(1614019476.333385) can0 240#0005FFE300000000
(1614019476.333575) can0 4AA#D5AE00BFFFF1FFC4
(1614019476.333747) can0 4AC#0974072C07CE0000
(1614019476.333941) can0 4BE#0000000000000000
(1614019476.334132) can0 4BF#0005FFE700000000
(1614019476.334434) can0 540#2973072C07CE0000
(1614019476.337776) can0 080#00050201009C0004
(1614019476.338087) can0 28C#0000000000000000
(1614019476.338275) can0 38C#142E000000000000
(1614019476.338439) can0 48C#0000000000000000
(1614019476.339690) can0 4C2#0605040600000000
(1614019476.340125) can0 213#03E8000000000000
(1614019476.340544) can0 212#0000000000000000
(1614019476.340718) can0 540#0008000000005700
(1614019476.341240) can0 210#0000000000000000
(1614019476.341644) can0 440#00030000FFFF0000
(1614019476.341763) can0 341#0000000000000000
(1614019476.341926) can0 241#0600050405028BA2
(1614019476.342030) can0 211#0000000000000000
(1614019476.342256) can0 340#FFEDFFC600000001
(1614019476.342813) can0 2C0#0005FFE7FFF1FFC4
(1614019476.343082) can0 3C0#0000000000000000
(1614019476.343271) can0 4C0#0000000000000078
(1614019476.343442) can0 240#0005FFE700000000
(1614019476.343560) can0 4AA#D5AE00BFFFEDFFC1
(1614019476.343729) can0 4AC#0973072C07CE0000
(1614019476.344041) can0 4BF#0005FFE300000000
(1614019476.344158) can0 4BE#0000000000000000
(1614019476.344385) can0 540#1D9506D20B7A0A89
(1614019476.347747) can0 080#00050201009C0004
(1614019476.348088) can0 28C#0000000000000000
(1614019476.348263) can0 38C#142E000000000000
(1614019476.348446) can0 48C#0000000000000000
(1614019476.349698) can0 4C2#0605040600000000
(1614019476.349806) can0 213#03E8000000000000
(1614019476.350250) can0 212#0000000000000000
(1614019476.350644) can0 540#0008000000005800
(1614019476.350752) can0 210#0000000000000000
(1614019476.351170) can0 211#0000000000000000
(1614019476.351537) can0 440#00030000FFFF0000
(1614019476.351705) can0 341#0000000000000000
(1614019476.351870) can0 241#0600050405028BA2
(1614019476.352261) can0 340#FFF1FFC400000001
(1614019476.352809) can0 2C0#0005FFE3FFEDFFC1
(1614019476.353053) can0 3C0#0000000000000000
(1614019476.353223) can0 4C0#0000000000000078
(1614019476.353389) can0 240#0005FFEC00000000
(1614019476.353555) can0 4AA#D5AE00BFFFEDFFC6
(1614019476.353722) can0 4AC#0973072C07CE0000
(1614019476.353884) can0 4BE#0000000000000000
(1614019476.354070) can0 4BF#0005FFE700000000
(1614019476.354399) can0 540#2973072D07CD0000
(1614019476.357768) can0 080#00050201009C0004
(1614019476.358106) can0 28C#0000000000000000
(1614019476.358289) can0 48C#0000000000000000
(1614019476.358404) can0 38C#142E000000000000
(1614019476.359799) can0 4C2#0605040600000000
(1614019476.359918) can0 213#03E8000000000000
(1614019476.360378) can0 212#0000000000000000
(1614019476.360786) can0 540#0008000000005900
(1614019476.360906) can0 210#0000000000000000
(1614019476.361356) can0 211#0000000000000000
(1614019476.361632) can0 440#00030000FFFF0000
(1614019476.361804) can0 341#0000000000000000
(1614019476.362002) can0 241#0600050404028BA2
(1614019476.362381) can0 340#FFF1FFC400000001
(1614019476.362832) can0 2C0#0005FFE7FFEDFFC6
(1614019476.363030) can0 3C0#0000000000000000
(1614019476.363230) can0 4C0#0000000000000078
(1614019476.363438) can0 240#0005FFE700000000
(1614019476.363638) can0 4AA#D5AE00BFFFF1FFC4
(1614019476.363776) can0 4AC#0973072D07CD0000
(1614019476.363996) can0 4BE#0000000000000000
(1614019476.364179) can0 4BF#0005FFEC00000000
(1614019476.364471) can0 540#1D9506D20B7B0A88
(1614019476.367747) can0 080#00050201009C0005
(1614019476.368090) can0 28C#0000000000000000
(1614019476.368258) can0 38C#142E000000000000
(1614019476.368426) can0 48C#0000000000000000
(1614019476.369858) can0 4C2#0605040600000000
(1614019476.369976) can0 213#03E8000000000000
(1614019476.370407) can0 212#0000000000000000
(1614019476.370797) can0 540#0008000000005A00
(1614019476.370910) can0 210#0000000000000000
(1614019476.371124) can0 341#0000000000000000
(1614019476.371292) can0 241#0600050405028BA2
(1614019476.371710) can0 440#00030000FFFF0000
(1614019476.371830) can0 211#0000000000000000
(1614019476.372650) can0 340#FFEDFFC600000001
(1614019476.372821) can0 2C0#0005FFECFFF1FFC4
(1614019476.373077) can0 3C0#0000000000000000
(1614019476.373245) can0 4C0#0000000000000078
(1614019476.373411) can0 240#0000FFE200000000
(1614019476.373579) can0 4AA#D5AE00BFFFF1FFC4
(1614019476.373746) can0 4AC#0973072D07CD0000
(1614019476.373916) can0 4BE#0000000000000000
(1614019476.374116) can0 4BF#0005FFE700000000
(1614019476.374485) can0 540#2973072C07CE0000
(1614019476.377763) can0 080#00050201009C0004
(1614019476.378098) can0 28C#0000000000000000
(1614019476.378297) can0 38C#142E000000000000
(1614019476.378464) can0 48C#0000000000000000
(1614019476.379700) can0 213#03E8000000000000
(1614019476.379872) can0 4C2#0605040600000000
(1614019476.380328) can0 212#0000000000000000
(1614019476.380795) can0 540#0008000000005B00
(1614019476.380909) can0 210#0000000000000000
(1614019476.381105) can0 341#0000000000000000
(1614019476.381279) can0 241#0600050405028BA2
(1614019476.381676) can0 440#00030000FFFF0000
(1614019476.381787) can0 211#0000000000000000
(1614019476.382700) can0 340#FFF1FFC400000001
(1614019476.382868) can0 2C0#0005FFE7FFF1FFC4
(1614019476.383069) can0 3C0#0000000000000000
(1614019476.383255) can0 4C0#0000000000000078
(1614019476.383430) can0 240#0005FFE300000000
(1614019476.383598) can0 4AA#D5AE00BFFFEDFFC6
